xrun(64): 24.09-s008: (c) Copyright 1995-2025 Cadence Design Systems, Inc.
TOOL:	xrun(64)	24.09-s008: Started on Sep 17, 2026 at 17:32:00 PKT
xrun
	-64bit
	-uvm
	-sv
	-access +rwc
	-timescale 1ns/1ps
	-f filelist.f
		+incdir+../tb
		+incdir+../rtl
		../rtl/axi_fifo.sv
		../rtl/axi4_peripheral.sv
		../tb/axi4_if.sv
		../tb/axi4_sva.sv
		../tb/axi4_env_pkg.sv
		../tb/top_example.sv
	-top top_example
	+UVM_TESTNAME=test_irq
	+UVM_VERBOSITY=UVM_MEDIUM
	-l logs/test_irq.log

   User defined plus("+") options:
	+UVM_VERBOSITY=UVM_MEDIUM

Loading snapshot worklib.top_example:sv .................... Done
SVSEED default: 1
xcelium> source /opt/cadencetools/XCELIUM2409/tools/xcelium/files/xmsimrc
xcelium> source /opt/cadencetools/XCELIUM2409/tools/methodology/UVM/CDNS-1.1d/additions/sv/files/tcl/uvm_sim.tcl
xcelium> run
----------------------------------------------------------------
CDNS-UVM-1.1d (24.09-s008)
(C) 2007-2013 Mentor Graphics Corporation
(C) 2007-2013 Cadence Design Systems, Inc.
(C) 2006-2013 Synopsys, Inc.
(C) 2011-2013 Cypress Semiconductor Corp.
----------------------------------------------------------------

  ***********       IMPORTANT RELEASE NOTES         ************

  You are using a version of the UVM library that has been compiled
  with `UVM_NO_DEPRECATED undefined.
  See http://www.eda.org/svdb/view.php?id=3313 for more details.

  You are using a version of the UVM library that has been compiled
  with `UVM_OBJECT_MUST_HAVE_CONSTRUCTOR undefined.
  See http://www.eda.org/svdb/view.php?id=3770 for more details.

      (Specify +UVM_NO_RELNOTES to turn off this notice)

UVM_INFO @ 0: reporter [RNTST] Running test test_irq...
UVM_INFO ../tb/env/axi4_env.sv(19) @ 0: uvm_test_top.env [ENV] build_phase executed
UVM_INFO ../tb/env/axi4_coverage.sv(232) @ 0: uvm_test_top.env.coverage [COVERAGE] build_phase executed
UVM_INFO ../tb/agents/read_agent/axi4_read_agent.sv(17) @ 0: uvm_test_top.env.read_agent [READ_AGT] build_phase executed
UVM_INFO ../tb/env/axi4_ref_model.sv(58) @ 0: uvm_test_top.env.ref_model [REF_MODEL] build_phase: shadow state reset
UVM_INFO ../tb/env/axi4_scoreboard.sv(38) @ 0: uvm_test_top.env.scoreboard [SCOREBOARD] build_phase executed
UVM_INFO ../tb/agents/write_agent/axi4_write_agent.sv(17) @ 0: uvm_test_top.env.write_agent [WRITE_AGT] build_phase executed
UVM_INFO ../tb/agents/read_agent/axi4_read_agent.sv(28) @ 0: uvm_test_top.env.read_agent [READ_AGT] connect_phase executed
UVM_INFO ../tb/agents/write_agent/axi4_write_agent.sv(28) @ 0: uvm_test_top.env.write_agent [WRITE_AGT] connect_phase executed
UVM_INFO ../tb/env/axi4_env.sv(30) @ 0: uvm_test_top.env [ENV] connect_phase executed
UVM_INFO @ 0: reporter [UVMTOP] UVM testbench topology:
--------------------------------------------------------------------
Name                         Type                        Size  Value
--------------------------------------------------------------------
uvm_test_top                 test_irq                    -     @2624
  env                        axi4_env                    -     @2682
    coverage                 axi4_coverage               -     @3182
      read_export            uvm_analysis_imp_read       -     @3328
      write_export           uvm_analysis_imp_write      -     @3280
    read_agent               axi4_read_agent             -     @2745
      driver                 axi4_read_driver            -     @3407
        rsp_port             uvm_analysis_port           -     @3555
        seq_item_port        uvm_seq_item_pull_port      -     @3506
      monitor                axi4_read_monitor           -     @3375
        item_collected_port  uvm_analysis_port           -     @3427
      sequencer              uvm_sequencer               -     @3535
        rsp_export           uvm_analysis_export         -     @3644
        seq_item_export      uvm_seq_item_pull_imp       -     @4192
        arbitration_queue    array                       0     -    
        lock_queue           array                       0     -    
        num_last_reqs        integral                    32    'd1  
        num_last_rsps        integral                    32    'd1  
    ref_model                axi4_ref_model              -     @2775
      exp_read_port          uvm_analysis_port           -     @2974
      exp_write_port         uvm_analysis_port           -     @2925
      read_export            uvm_analysis_imp_read       -     @2876
      write_export           uvm_analysis_imp_write      -     @2825
    scoreboard               axi4_scoreboard             -     @2954
      exp_read_export        uvm_analysis_imp_exp_read   -     @3202
      exp_write_export       uvm_analysis_imp_exp_write  -     @3153
      read_export            uvm_analysis_imp_read       -     @3104
      write_export           uvm_analysis_imp_write      -     @3056
    write_agent              axi4_write_agent            -     @2657
      driver                 axi4_write_driver           -     @4343
        rsp_port             uvm_analysis_port           -     @4438
        seq_item_port        uvm_seq_item_pull_port      -     @4390
      monitor                axi4_write_monitor          -     @4263
        item_collected_port  uvm_analysis_port           -     @4313
      sequencer              uvm_sequencer               -     @4468
        rsp_export           uvm_analysis_export         -     @4523
        seq_item_export      uvm_seq_item_pull_imp       -     @5063
        arbitration_queue    array                       0     -    
        lock_queue           array                       0     -    
        num_last_reqs        integral                    32    'd1  
        num_last_rsps        integral                    32    'd1  
--------------------------------------------------------------------

UVM_INFO ../tb/env/axi4_scoreboard.sv(50) @ 0: uvm_test_top.env.scoreboard [SCOREBOARD] ARESETn asserted  compare queues flushed
UVM_INFO ../tb/env/axi4_ref_model.sv(70) @ 0: uvm_test_top.env.ref_model [REF_MODEL] ARESETn asserted  shadow state cleared
UVM_INFO ../tb/tests/test_irq.sv(15) @ 35000: uvm_test_top [test_irq] === test_irq: seqs 43-47 ===
UVM_INFO ../tb/sequences/seq_irq_basic_assert_deassert.sv(18) @ 35000: reporter@@s [SEQ_IRQ_BASIC] Executing Sequence #43: Basic IRQ Assertion/Deassertion
UVM_INFO ../tb/agents/write_agent/axi4_write_driver.sv(39) @ 45000: uvm_test_top.env.write_agent.driver [WRITE_DRV] Driving write: ID=0 Addr=0x1000 Len=0 Size=2 Burst=0
UVM_INFO ../tb/agents/write_agent/axi4_write_monitor.sv(137) @ 85000: uvm_test_top.env.write_agent.monitor [WRITE_MON] Write txn complete: ID=0 Addr=0x1000 Beats=1 BRESP=0
UVM_INFO ../tb/env/axi4_scoreboard.sv(135) @ 85000: uvm_test_top.env.scoreboard [SCOREBOARD] WR MATCH ID=0 Addr=0x1000 BRESP=0
UVM_INFO ../tb/agents/write_agent/axi4_write_driver.sv(158) @ 85000: uvm_test_top.env.write_agent.driver [WRITE_DRV] Write complete: ID=0 Addr=0x1000 BRESP=0
UVM_INFO ../tb/agents/write_agent/axi4_write_driver.sv(39) @ 95000: uvm_test_top.env.write_agent.driver [WRITE_DRV] Driving write: ID=0 Addr=0x1008 Len=0 Size=2 Burst=0
UVM_INFO ../tb/agents/write_agent/axi4_write_monitor.sv(137) @ 135000: uvm_test_top.env.write_agent.monitor [WRITE_MON] Write txn complete: ID=0 Addr=0x1008 Beats=1 BRESP=0
UVM_INFO ../tb/env/axi4_scoreboard.sv(135) @ 135000: uvm_test_top.env.scoreboard [SCOREBOARD] WR MATCH ID=0 Addr=0x1008 BRESP=0
UVM_INFO ../tb/agents/write_agent/axi4_write_driver.sv(158) @ 135000: uvm_test_top.env.write_agent.driver [WRITE_DRV] Write complete: ID=0 Addr=0x1008 BRESP=0
UVM_INFO ../tb/sequences/axi4_vseq_base.sv(70) @ 145000: reporter@@s [seq_irq_basic_assert_deassert] IRQ check passed (before error event (empty flag not masked)): IRQ=0
UVM_INFO ../tb/agents/write_agent/axi4_write_driver.sv(39) @ 155000: uvm_test_top.env.write_agent.driver [WRITE_DRV] Driving write: ID=0 Addr=0x1004 Len=0 Size=2 Burst=0
UVM_INFO ../tb/agents/write_agent/axi4_write_monitor.sv(137) @ 195000: uvm_test_top.env.write_agent.monitor [WRITE_MON] Write txn complete: ID=0 Addr=0x1004 Beats=1 BRESP=2
UVM_INFO ../tb/env/axi4_scoreboard.sv(135) @ 195000: uvm_test_top.env.scoreboard [SCOREBOARD] WR MATCH ID=0 Addr=0x1004 BRESP=2
UVM_INFO ../tb/agents/write_agent/axi4_write_driver.sv(158) @ 195000: uvm_test_top.env.write_agent.driver [WRITE_DRV] Write complete: ID=0 Addr=0x1004 BRESP=2
UVM_INFO ../tb/sequences/axi4_vseq_base.sv(70) @ 205000: reporter@@s [seq_irq_basic_assert_deassert] IRQ check passed (after error event): IRQ=1
UVM_INFO ../tb/agents/write_agent/axi4_write_driver.sv(39) @ 215000: uvm_test_top.env.write_agent.driver [WRITE_DRV] Driving write: ID=0 Addr=0x100c Len=0 Size=2 Burst=0
UVM_INFO ../tb/agents/write_agent/axi4_write_monitor.sv(137) @ 255000: uvm_test_top.env.write_agent.monitor [WRITE_MON] Write txn complete: ID=0 Addr=0x100c Beats=1 BRESP=0
UVM_INFO ../tb/env/axi4_scoreboard.sv(135) @ 255000: uvm_test_top.env.scoreboard [SCOREBOARD] WR MATCH ID=0 Addr=0x100c BRESP=0
UVM_INFO ../tb/agents/write_agent/axi4_write_driver.sv(158) @ 255000: uvm_test_top.env.write_agent.driver [WRITE_DRV] Write complete: ID=0 Addr=0x100c BRESP=0
UVM_INFO ../tb/sequences/axi4_vseq_base.sv(70) @ 265000: reporter@@s [seq_irq_basic_assert_deassert] IRQ check passed (after W1C deassert): IRQ=0
UVM_INFO ../tb/sequences/seq_irq_basic_assert_deassert.sv(79) @ 265000: reporter@@s [SEQ_IRQ_BASIC] Sequence #43 completed
UVM_INFO ../tb/sequences/seq_irq_mask_sweep.sv(22) @ 315000: reporter@@s [SEQ_IRQ_MASK_SWEEP] Executing Sequence #44: IRQ Mask Sweep
UVM_INFO ../tb/env/axi4_scoreboard.sv(50) @ 325000: uvm_test_top.env.scoreboard [SCOREBOARD] ARESETn asserted  compare queues flushed
UVM_INFO ../tb/env/axi4_ref_model.sv(70) @ 325000: uvm_test_top.env.ref_model [REF_MODEL] ARESETn asserted  shadow state cleared
UVM_INFO ../tb/agents/write_agent/axi4_write_driver.sv(39) @ 405000: uvm_test_top.env.write_agent.driver [WRITE_DRV] Driving write: ID=1 Addr=0x1000 Len=0 Size=2 Burst=0
UVM_INFO ../tb/agents/write_agent/axi4_write_monitor.sv(137) @ 445000: uvm_test_top.env.write_agent.monitor [WRITE_MON] Write txn complete: ID=1 Addr=0x1000 Beats=1 BRESP=0
UVM_INFO ../tb/env/axi4_scoreboard.sv(135) @ 445000: uvm_test_top.env.scoreboard [SCOREBOARD] WR MATCH ID=1 Addr=0x1000 BRESP=0
UVM_INFO ../tb/agents/write_agent/axi4_write_driver.sv(158) @ 445000: uvm_test_top.env.write_agent.driver [WRITE_DRV] Write complete: ID=1 Addr=0x1000 BRESP=0
UVM_INFO ../tb/agents/write_agent/axi4_write_driver.sv(39) @ 455000: uvm_test_top.env.write_agent.driver [WRITE_DRV] Driving write: ID=1 Addr=0x1008 Len=0 Size=2 Burst=0
UVM_INFO ../tb/agents/write_agent/axi4_write_monitor.sv(137) @ 495000: uvm_test_top.env.write_agent.monitor [WRITE_MON] Write txn complete: ID=1 Addr=0x1008 Beats=1 BRESP=0
UVM_INFO ../tb/env/axi4_scoreboard.sv(135) @ 495000: uvm_test_top.env.scoreboard [SCOREBOARD] WR MATCH ID=1 Addr=0x1008 BRESP=0
UVM_INFO ../tb/agents/write_agent/axi4_write_driver.sv(158) @ 495000: uvm_test_top.env.write_agent.driver [WRITE_DRV] Write complete: ID=1 Addr=0x1008 BRESP=0
UVM_INFO ../tb/sequences/axi4_vseq_base.sv(70) @ 505000: reporter@@s [seq_irq_mask_sweep] IRQ check passed (INT_EN=0x0): IRQ=0
UVM_INFO ../tb/agents/write_agent/axi4_write_driver.sv(39) @ 515000: uvm_test_top.env.write_agent.driver [WRITE_DRV] Driving write: ID=1 Addr=0x1008 Len=0 Size=2 Burst=0
UVM_INFO ../tb/agents/write_agent/axi4_write_monitor.sv(137) @ 555000: uvm_test_top.env.write_agent.monitor [WRITE_MON] Write txn complete: ID=1 Addr=0x1008 Beats=1 BRESP=0
UVM_INFO ../tb/env/axi4_scoreboard.sv(135) @ 555000: uvm_test_top.env.scoreboard [SCOREBOARD] WR MATCH ID=1 Addr=0x1008 BRESP=0
UVM_INFO ../tb/agents/write_agent/axi4_write_driver.sv(158) @ 555000: uvm_test_top.env.write_agent.driver [WRITE_DRV] Write complete: ID=1 Addr=0x1008 BRESP=0
UVM_INFO ../tb/sequences/axi4_vseq_base.sv(70) @ 565000: reporter@@s [seq_irq_mask_sweep] IRQ check passed (INT_EN=0x1): IRQ=0
UVM_INFO ../tb/agents/write_agent/axi4_write_driver.sv(39) @ 575000: uvm_test_top.env.write_agent.driver [WRITE_DRV] Driving write: ID=1 Addr=0x1008 Len=0 Size=2 Burst=0
UVM_INFO ../tb/agents/write_agent/axi4_write_monitor.sv(137) @ 615000: uvm_test_top.env.write_agent.monitor [WRITE_MON] Write txn complete: ID=1 Addr=0x1008 Beats=1 BRESP=0
UVM_INFO ../tb/env/axi4_scoreboard.sv(135) @ 615000: uvm_test_top.env.scoreboard [SCOREBOARD] WR MATCH ID=1 Addr=0x1008 BRESP=0
UVM_INFO ../tb/agents/write_agent/axi4_write_driver.sv(158) @ 615000: uvm_test_top.env.write_agent.driver [WRITE_DRV] Write complete: ID=1 Addr=0x1008 BRESP=0
UVM_INFO ../tb/sequences/axi4_vseq_base.sv(70) @ 625000: reporter@@s [seq_irq_mask_sweep] IRQ check passed (INT_EN=0x2): IRQ=1
UVM_INFO ../tb/agents/write_agent/axi4_write_driver.sv(39) @ 635000: uvm_test_top.env.write_agent.driver [WRITE_DRV] Driving write: ID=1 Addr=0x1008 Len=0 Size=2 Burst=0
UVM_INFO ../tb/agents/write_agent/axi4_write_monitor.sv(137) @ 675000: uvm_test_top.env.write_agent.monitor [WRITE_MON] Write txn complete: ID=1 Addr=0x1008 Beats=1 BRESP=0
UVM_INFO ../tb/env/axi4_scoreboard.sv(135) @ 675000: uvm_test_top.env.scoreboard [SCOREBOARD] WR MATCH ID=1 Addr=0x1008 BRESP=0
UVM_INFO ../tb/agents/write_agent/axi4_write_driver.sv(158) @ 675000: uvm_test_top.env.write_agent.driver [WRITE_DRV] Write complete: ID=1 Addr=0x1008 BRESP=0
UVM_INFO ../tb/sequences/axi4_vseq_base.sv(70) @ 685000: reporter@@s [seq_irq_mask_sweep] IRQ check passed (INT_EN=0x4): IRQ=0
UVM_INFO ../tb/agents/write_agent/axi4_write_driver.sv(39) @ 695000: uvm_test_top.env.write_agent.driver [WRITE_DRV] Driving write: ID=1 Addr=0x1008 Len=0 Size=2 Burst=0
UVM_INFO ../tb/agents/write_agent/axi4_write_monitor.sv(137) @ 735000: uvm_test_top.env.write_agent.monitor [WRITE_MON] Write txn complete: ID=1 Addr=0x1008 Beats=1 BRESP=0
UVM_INFO ../tb/env/axi4_scoreboard.sv(135) @ 735000: uvm_test_top.env.scoreboard [SCOREBOARD] WR MATCH ID=1 Addr=0x1008 BRESP=0
UVM_INFO ../tb/agents/write_agent/axi4_write_driver.sv(158) @ 735000: uvm_test_top.env.write_agent.driver [WRITE_DRV] Write complete: ID=1 Addr=0x1008 BRESP=0
UVM_INFO ../tb/sequences/axi4_vseq_base.sv(70) @ 745000: reporter@@s [seq_irq_mask_sweep] IRQ check passed (INT_EN=0x7): IRQ=1
UVM_INFO ../tb/sequences/seq_irq_mask_sweep.sv(56) @ 745000: reporter@@s [SEQ_IRQ_MASK_SWEEP] Sequence #44 completed
UVM_INFO ../tb/sequences/seq_irq_en_gate.sv(18) @ 795000: reporter@@s [SEQ_IRQ_EN_GATE] Executing Sequence #45: Global IRQ Gate Check
UVM_INFO ../tb/agents/write_agent/axi4_write_driver.sv(39) @ 805000: uvm_test_top.env.write_agent.driver [WRITE_DRV] Driving write: ID=2 Addr=0x1008 Len=0 Size=2 Burst=0
UVM_INFO ../tb/agents/write_agent/axi4_write_monitor.sv(137) @ 845000: uvm_test_top.env.write_agent.monitor [WRITE_MON] Write txn complete: ID=2 Addr=0x1008 Beats=1 BRESP=0
UVM_INFO ../tb/env/axi4_scoreboard.sv(135) @ 845000: uvm_test_top.env.scoreboard [SCOREBOARD] WR MATCH ID=2 Addr=0x1008 BRESP=0
UVM_INFO ../tb/agents/write_agent/axi4_write_driver.sv(158) @ 845000: uvm_test_top.env.write_agent.driver [WRITE_DRV] Write complete: ID=2 Addr=0x1008 BRESP=0
UVM_INFO ../tb/agents/write_agent/axi4_write_driver.sv(39) @ 855000: uvm_test_top.env.write_agent.driver [WRITE_DRV] Driving write: ID=2 Addr=0x1000 Len=0 Size=2 Burst=0
UVM_INFO ../tb/agents/write_agent/axi4_write_monitor.sv(137) @ 895000: uvm_test_top.env.write_agent.monitor [WRITE_MON] Write txn complete: ID=2 Addr=0x1000 Beats=1 BRESP=0
UVM_INFO ../tb/env/axi4_scoreboard.sv(135) @ 895000: uvm_test_top.env.scoreboard [SCOREBOARD] WR MATCH ID=2 Addr=0x1000 BRESP=0
UVM_INFO ../tb/agents/write_agent/axi4_write_driver.sv(158) @ 895000: uvm_test_top.env.write_agent.driver [WRITE_DRV] Write complete: ID=2 Addr=0x1000 BRESP=0
UVM_INFO ../tb/agents/write_agent/axi4_write_driver.sv(39) @ 905000: uvm_test_top.env.write_agent.driver [WRITE_DRV] Driving write: ID=2 Addr=0x1004 Len=0 Size=2 Burst=0
UVM_INFO ../tb/agents/write_agent/axi4_write_monitor.sv(137) @ 945000: uvm_test_top.env.write_agent.monitor [WRITE_MON] Write txn complete: ID=2 Addr=0x1004 Beats=1 BRESP=2
UVM_INFO ../tb/env/axi4_scoreboard.sv(135) @ 945000: uvm_test_top.env.scoreboard [SCOREBOARD] WR MATCH ID=2 Addr=0x1004 BRESP=2
UVM_INFO ../tb/agents/write_agent/axi4_write_driver.sv(158) @ 945000: uvm_test_top.env.write_agent.driver [WRITE_DRV] Write complete: ID=2 Addr=0x1004 BRESP=2
UVM_INFO ../tb/sequences/axi4_vseq_base.sv(70) @ 955000: reporter@@s [seq_irq_en_gate] IRQ check passed (irq_en gated off): IRQ=0
UVM_INFO ../tb/sequences/seq_irq_en_gate.sv(65) @ 955000: reporter@@s [SEQ_IRQ_EN_GATE] Sequence #45 completed
UVM_INFO ../tb/sequences/seq_irq_w1c_clear.sv(19) @ 1005000: reporter@@s [SEQ_IRQ_W1C_CLEAR] Executing Sequence #46: IRQ W1C Clear Test
UVM_INFO ../tb/agents/write_agent/axi4_write_driver.sv(39) @ 1015000: uvm_test_top.env.write_agent.driver [WRITE_DRV] Driving write: ID=3 Addr=0x1000 Len=0 Size=2 Burst=0
UVM_INFO ../tb/agents/write_agent/axi4_write_monitor.sv(137) @ 1055000: uvm_test_top.env.write_agent.monitor [WRITE_MON] Write txn complete: ID=3 Addr=0x1000 Beats=1 BRESP=0
UVM_INFO ../tb/env/axi4_scoreboard.sv(135) @ 1055000: uvm_test_top.env.scoreboard [SCOREBOARD] WR MATCH ID=3 Addr=0x1000 BRESP=0
UVM_INFO ../tb/agents/write_agent/axi4_write_driver.sv(158) @ 1055000: uvm_test_top.env.write_agent.driver [WRITE_DRV] Write complete: ID=3 Addr=0x1000 BRESP=0
UVM_INFO ../tb/agents/write_agent/axi4_write_driver.sv(39) @ 1065000: uvm_test_top.env.write_agent.driver [WRITE_DRV] Driving write: ID=3 Addr=0x1008 Len=0 Size=2 Burst=0
UVM_INFO ../tb/agents/write_agent/axi4_write_monitor.sv(137) @ 1105000: uvm_test_top.env.write_agent.monitor [WRITE_MON] Write txn complete: ID=3 Addr=0x1008 Beats=1 BRESP=0
UVM_INFO ../tb/env/axi4_scoreboard.sv(135) @ 1105000: uvm_test_top.env.scoreboard [SCOREBOARD] WR MATCH ID=3 Addr=0x1008 BRESP=0
UVM_INFO ../tb/agents/write_agent/axi4_write_driver.sv(158) @ 1105000: uvm_test_top.env.write_agent.driver [WRITE_DRV] Write complete: ID=3 Addr=0x1008 BRESP=0
UVM_INFO ../tb/agents/write_agent/axi4_write_driver.sv(39) @ 1115000: uvm_test_top.env.write_agent.driver [WRITE_DRV] Driving write: ID=3 Addr=0x1004 Len=0 Size=2 Burst=0
UVM_INFO ../tb/agents/write_agent/axi4_write_monitor.sv(137) @ 1155000: uvm_test_top.env.write_agent.monitor [WRITE_MON] Write txn complete: ID=3 Addr=0x1004 Beats=1 BRESP=2
UVM_INFO ../tb/env/axi4_scoreboard.sv(135) @ 1155000: uvm_test_top.env.scoreboard [SCOREBOARD] WR MATCH ID=3 Addr=0x1004 BRESP=2
UVM_INFO ../tb/agents/write_agent/axi4_write_driver.sv(158) @ 1155000: uvm_test_top.env.write_agent.driver [WRITE_DRV] Write complete: ID=3 Addr=0x1004 BRESP=2
UVM_INFO ../tb/sequences/axi4_vseq_base.sv(70) @ 1165000: reporter@@s [seq_irq_w1c_clear] IRQ check passed (IRQ asserted after error): IRQ=1
UVM_INFO ../tb/agents/write_agent/axi4_write_driver.sv(39) @ 1175000: uvm_test_top.env.write_agent.driver [WRITE_DRV] Driving write: ID=3 Addr=0x100c Len=0 Size=2 Burst=0
UVM_INFO ../tb/agents/write_agent/axi4_write_monitor.sv(137) @ 1215000: uvm_test_top.env.write_agent.monitor [WRITE_MON] Write txn complete: ID=3 Addr=0x100c Beats=1 BRESP=0
UVM_INFO ../tb/env/axi4_scoreboard.sv(135) @ 1215000: uvm_test_top.env.scoreboard [SCOREBOARD] WR MATCH ID=3 Addr=0x100c BRESP=0
UVM_INFO ../tb/agents/write_agent/axi4_write_driver.sv(158) @ 1215000: uvm_test_top.env.write_agent.driver [WRITE_DRV] Write complete: ID=3 Addr=0x100c BRESP=0
UVM_INFO ../tb/sequences/axi4_vseq_base.sv(70) @ 1225000: reporter@@s [seq_irq_w1c_clear] IRQ check passed (after INT_STATUS write-0 (must not clear)): IRQ=1
UVM_INFO ../tb/agents/read_agent/axi4_read_driver.sv(39) @ 1235000: uvm_test_top.env.read_agent.driver [READ_DRV] Driving read: ID=3 Addr=0x100c Len=0 Size=2 Burst=0
UVM_INFO ../tb/agents/read_agent/axi4_read_monitor.sv(128) @ 1265000: uvm_test_top.env.read_agent.monitor [READ_MON] Read txn complete: ID=3 Addr=0x100c Beats=1 FinalRESP=0 RDATA[0]=0x00000006
UVM_INFO ../tb/env/axi4_scoreboard.sv(199) @ 1265000: uvm_test_top.env.scoreboard [SCOREBOARD] RD MATCH ID=3 Addr=0x100c RESP=0 Data0=0x00000006
UVM_INFO ../tb/agents/read_agent/axi4_read_driver.sv(151) @ 1265000: uvm_test_top.env.read_agent.driver [READ_DRV] Read complete: ID=3 Addr=0x100c Beats=1 FinalRESP=0 RDATA[0]=0x00000006
UVM_INFO ../tb/agents/write_agent/axi4_write_driver.sv(39) @ 1275000: uvm_test_top.env.write_agent.driver [WRITE_DRV] Driving write: ID=3 Addr=0x100c Len=0 Size=2 Burst=0
UVM_INFO ../tb/agents/write_agent/axi4_write_monitor.sv(137) @ 1315000: uvm_test_top.env.write_agent.monitor [WRITE_MON] Write txn complete: ID=3 Addr=0x100c Beats=1 BRESP=0
UVM_INFO ../tb/env/axi4_scoreboard.sv(135) @ 1315000: uvm_test_top.env.scoreboard [SCOREBOARD] WR MATCH ID=3 Addr=0x100c BRESP=0
UVM_INFO ../tb/agents/write_agent/axi4_write_driver.sv(158) @ 1315000: uvm_test_top.env.write_agent.driver [WRITE_DRV] Write complete: ID=3 Addr=0x100c BRESP=0
UVM_INFO ../tb/sequences/axi4_vseq_base.sv(70) @ 1325000: reporter@@s [seq_irq_w1c_clear] IRQ check passed (IRQ cleared via W1C): IRQ=0
UVM_INFO ../tb/sequences/seq_irq_w1c_clear.sv(104) @ 1325000: reporter@@s [SEQ_IRQ_W1C_CLEAR] Sequence #46 completed
UVM_INFO ../tb/sequences/seq_irq_level_set_fifo_flags.sv(19) @ 1375000: reporter@@s [SEQ_IRQ_LEVEL_SET] Executing Sequence #47: INT_STATUS Level-Set FIFO Flags Check
UVM_INFO ../tb/env/axi4_scoreboard.sv(50) @ 1385000: uvm_test_top.env.scoreboard [SCOREBOARD] ARESETn asserted  compare queues flushed
UVM_INFO ../tb/env/axi4_ref_model.sv(70) @ 1385000: uvm_test_top.env.ref_model [REF_MODEL] ARESETn asserted  shadow state cleared
UVM_INFO ../tb/agents/read_agent/axi4_read_driver.sv(39) @ 1465000: uvm_test_top.env.read_agent.driver [READ_DRV] Driving read: ID=4 Addr=0x100c Len=0 Size=2 Burst=0
UVM_INFO ../tb/agents/read_agent/axi4_read_monitor.sv(128) @ 1495000: uvm_test_top.env.read_agent.monitor [READ_MON] Read txn complete: ID=4 Addr=0x100c Beats=1 FinalRESP=0 RDATA[0]=0x00000002
UVM_INFO ../tb/env/axi4_scoreboard.sv(199) @ 1495000: uvm_test_top.env.scoreboard [SCOREBOARD] RD MATCH ID=4 Addr=0x100c RESP=0 Data0=0x00000002
UVM_INFO ../tb/agents/read_agent/axi4_read_driver.sv(151) @ 1495000: uvm_test_top.env.read_agent.driver [READ_DRV] Read complete: ID=4 Addr=0x100c Beats=1 FinalRESP=0 RDATA[0]=0x00000002
UVM_INFO ../tb/agents/write_agent/axi4_write_driver.sv(39) @ 1505000: uvm_test_top.env.write_agent.driver [WRITE_DRV] Driving write: ID=4 Addr=0x100c Len=0 Size=2 Burst=0
UVM_INFO ../tb/agents/write_agent/axi4_write_monitor.sv(137) @ 1545000: uvm_test_top.env.write_agent.monitor [WRITE_MON] Write txn complete: ID=4 Addr=0x100c Beats=1 BRESP=0
UVM_INFO ../tb/env/axi4_scoreboard.sv(135) @ 1545000: uvm_test_top.env.scoreboard [SCOREBOARD] WR MATCH ID=4 Addr=0x100c BRESP=0
UVM_INFO ../tb/agents/write_agent/axi4_write_driver.sv(158) @ 1545000: uvm_test_top.env.write_agent.driver [WRITE_DRV] Write complete: ID=4 Addr=0x100c BRESP=0
UVM_INFO ../tb/agents/read_agent/axi4_read_driver.sv(39) @ 1555000: uvm_test_top.env.read_agent.driver [READ_DRV] Driving read: ID=4 Addr=0x100c Len=0 Size=2 Burst=0
UVM_INFO ../tb/agents/read_agent/axi4_read_monitor.sv(128) @ 1585000: uvm_test_top.env.read_agent.monitor [READ_MON] Read txn complete: ID=4 Addr=0x100c Beats=1 FinalRESP=0 RDATA[0]=0x00000002
UVM_INFO ../tb/env/axi4_scoreboard.sv(199) @ 1585000: uvm_test_top.env.scoreboard [SCOREBOARD] RD MATCH ID=4 Addr=0x100c RESP=0 Data0=0x00000002
UVM_INFO ../tb/agents/read_agent/axi4_read_driver.sv(151) @ 1585000: uvm_test_top.env.read_agent.driver [READ_DRV] Read complete: ID=4 Addr=0x100c Beats=1 FinalRESP=0 RDATA[0]=0x00000002
UVM_INFO ../tb/agents/write_agent/axi4_write_driver.sv(39) @ 1595000: uvm_test_top.env.write_agent.driver [WRITE_DRV] Driving write: ID=4 Addr=0x1000 Len=0 Size=2 Burst=0
UVM_INFO ../tb/agents/write_agent/axi4_write_monitor.sv(137) @ 1635000: uvm_test_top.env.write_agent.monitor [WRITE_MON] Write txn complete: ID=4 Addr=0x1000 Beats=1 BRESP=0
UVM_INFO ../tb/env/axi4_scoreboard.sv(135) @ 1635000: uvm_test_top.env.scoreboard [SCOREBOARD] WR MATCH ID=4 Addr=0x1000 BRESP=0
UVM_INFO ../tb/agents/write_agent/axi4_write_driver.sv(158) @ 1635000: uvm_test_top.env.write_agent.driver [WRITE_DRV] Write complete: ID=4 Addr=0x1000 BRESP=0
UVM_INFO ../tb/agents/write_agent/axi4_write_driver.sv(39) @ 1645000: uvm_test_top.env.write_agent.driver [WRITE_DRV] Driving write: ID=4 Addr=0x1010 Len=0 Size=2 Burst=0
UVM_INFO ../tb/agents/write_agent/axi4_write_monitor.sv(137) @ 1685000: uvm_test_top.env.write_agent.monitor [WRITE_MON] Write txn complete: ID=4 Addr=0x1010 Beats=1 BRESP=0
UVM_INFO ../tb/env/axi4_scoreboard.sv(135) @ 1685000: uvm_test_top.env.scoreboard [SCOREBOARD] WR MATCH ID=4 Addr=0x1010 BRESP=0
UVM_INFO ../tb/agents/write_agent/axi4_write_driver.sv(158) @ 1685000: uvm_test_top.env.write_agent.driver [WRITE_DRV] Write complete: ID=4 Addr=0x1010 BRESP=0
UVM_INFO ../tb/agents/write_agent/axi4_write_driver.sv(39) @ 1695000: uvm_test_top.env.write_agent.driver [WRITE_DRV] Driving write: ID=4 Addr=0x1010 Len=0 Size=2 Burst=0
UVM_INFO ../tb/agents/write_agent/axi4_write_monitor.sv(137) @ 1735000: uvm_test_top.env.write_agent.monitor [WRITE_MON] Write txn complete: ID=4 Addr=0x1010 Beats=1 BRESP=0
UVM_INFO ../tb/env/axi4_scoreboard.sv(135) @ 1735000: uvm_test_top.env.scoreboard [SCOREBOARD] WR MATCH ID=4 Addr=0x1010 BRESP=0
UVM_INFO ../tb/agents/write_agent/axi4_write_driver.sv(158) @ 1735000: uvm_test_top.env.write_agent.driver [WRITE_DRV] Write complete: ID=4 Addr=0x1010 BRESP=0
UVM_INFO ../tb/agents/write_agent/axi4_write_driver.sv(39) @ 1745000: uvm_test_top.env.write_agent.driver [WRITE_DRV] Driving write: ID=4 Addr=0x1010 Len=0 Size=2 Burst=0
UVM_INFO ../tb/agents/write_agent/axi4_write_monitor.sv(137) @ 1785000: uvm_test_top.env.write_agent.monitor [WRITE_MON] Write txn complete: ID=4 Addr=0x1010 Beats=1 BRESP=0
UVM_INFO ../tb/env/axi4_scoreboard.sv(135) @ 1785000: uvm_test_top.env.scoreboard [SCOREBOARD] WR MATCH ID=4 Addr=0x1010 BRESP=0
UVM_INFO ../tb/agents/write_agent/axi4_write_driver.sv(158) @ 1785000: uvm_test_top.env.write_agent.driver [WRITE_DRV] Write complete: ID=4 Addr=0x1010 BRESP=0
UVM_INFO ../tb/agents/write_agent/axi4_write_driver.sv(39) @ 1795000: uvm_test_top.env.write_agent.driver [WRITE_DRV] Driving write: ID=4 Addr=0x1010 Len=0 Size=2 Burst=0
UVM_INFO ../tb/agents/write_agent/axi4_write_monitor.sv(137) @ 1835000: uvm_test_top.env.write_agent.monitor [WRITE_MON] Write txn complete: ID=4 Addr=0x1010 Beats=1 BRESP=0
UVM_INFO ../tb/env/axi4_scoreboard.sv(135) @ 1835000: uvm_test_top.env.scoreboard [SCOREBOARD] WR MATCH ID=4 Addr=0x1010 BRESP=0
UVM_INFO ../tb/agents/write_agent/axi4_write_driver.sv(158) @ 1835000: uvm_test_top.env.write_agent.driver [WRITE_DRV] Write complete: ID=4 Addr=0x1010 BRESP=0
UVM_INFO ../tb/agents/write_agent/axi4_write_driver.sv(39) @ 1845000: uvm_test_top.env.write_agent.driver [WRITE_DRV] Driving write: ID=4 Addr=0x1010 Len=0 Size=2 Burst=0
UVM_INFO ../tb/agents/write_agent/axi4_write_monitor.sv(137) @ 1885000: uvm_test_top.env.write_agent.monitor [WRITE_MON] Write txn complete: ID=4 Addr=0x1010 Beats=1 BRESP=0
UVM_INFO ../tb/env/axi4_scoreboard.sv(135) @ 1885000: uvm_test_top.env.scoreboard [SCOREBOARD] WR MATCH ID=4 Addr=0x1010 BRESP=0
UVM_INFO ../tb/agents/write_agent/axi4_write_driver.sv(158) @ 1885000: uvm_test_top.env.write_agent.driver [WRITE_DRV] Write complete: ID=4 Addr=0x1010 BRESP=0
UVM_INFO ../tb/agents/write_agent/axi4_write_driver.sv(39) @ 1895000: uvm_test_top.env.write_agent.driver [WRITE_DRV] Driving write: ID=4 Addr=0x1010 Len=0 Size=2 Burst=0
UVM_INFO ../tb/agents/write_agent/axi4_write_monitor.sv(137) @ 1935000: uvm_test_top.env.write_agent.monitor [WRITE_MON] Write txn complete: ID=4 Addr=0x1010 Beats=1 BRESP=0
UVM_INFO ../tb/env/axi4_scoreboard.sv(135) @ 1935000: uvm_test_top.env.scoreboard [SCOREBOARD] WR MATCH ID=4 Addr=0x1010 BRESP=0
UVM_INFO ../tb/agents/write_agent/axi4_write_driver.sv(158) @ 1935000: uvm_test_top.env.write_agent.driver [WRITE_DRV] Write complete: ID=4 Addr=0x1010 BRESP=0
UVM_INFO ../tb/agents/write_agent/axi4_write_driver.sv(39) @ 1945000: uvm_test_top.env.write_agent.driver [WRITE_DRV] Driving write: ID=4 Addr=0x1010 Len=0 Size=2 Burst=0
UVM_INFO ../tb/agents/write_agent/axi4_write_monitor.sv(137) @ 1985000: uvm_test_top.env.write_agent.monitor [WRITE_MON] Write txn complete: ID=4 Addr=0x1010 Beats=1 BRESP=0
UVM_INFO ../tb/env/axi4_scoreboard.sv(135) @ 1985000: uvm_test_top.env.scoreboard [SCOREBOARD] WR MATCH ID=4 Addr=0x1010 BRESP=0
UVM_INFO ../tb/agents/write_agent/axi4_write_driver.sv(158) @ 1985000: uvm_test_top.env.write_agent.driver [WRITE_DRV] Write complete: ID=4 Addr=0x1010 BRESP=0
UVM_INFO ../tb/agents/write_agent/axi4_write_driver.sv(39) @ 1995000: uvm_test_top.env.write_agent.driver [WRITE_DRV] Driving write: ID=4 Addr=0x1010 Len=0 Size=2 Burst=0
UVM_INFO ../tb/agents/write_agent/axi4_write_monitor.sv(137) @ 2035000: uvm_test_top.env.write_agent.monitor [WRITE_MON] Write txn complete: ID=4 Addr=0x1010 Beats=1 BRESP=0
UVM_INFO ../tb/env/axi4_scoreboard.sv(135) @ 2035000: uvm_test_top.env.scoreboard [SCOREBOARD] WR MATCH ID=4 Addr=0x1010 BRESP=0
UVM_INFO ../tb/agents/write_agent/axi4_write_driver.sv(158) @ 2035000: uvm_test_top.env.write_agent.driver [WRITE_DRV] Write complete: ID=4 Addr=0x1010 BRESP=0
UVM_INFO ../tb/agents/write_agent/axi4_write_driver.sv(39) @ 2045000: uvm_test_top.env.write_agent.driver [WRITE_DRV] Driving write: ID=4 Addr=0x1010 Len=0 Size=2 Burst=0
UVM_INFO ../tb/agents/write_agent/axi4_write_monitor.sv(137) @ 2085000: uvm_test_top.env.write_agent.monitor [WRITE_MON] Write txn complete: ID=4 Addr=0x1010 Beats=1 BRESP=0
UVM_INFO ../tb/env/axi4_scoreboard.sv(135) @ 2085000: uvm_test_top.env.scoreboard [SCOREBOARD] WR MATCH ID=4 Addr=0x1010 BRESP=0
UVM_INFO ../tb/agents/write_agent/axi4_write_driver.sv(158) @ 2085000: uvm_test_top.env.write_agent.driver [WRITE_DRV] Write complete: ID=4 Addr=0x1010 BRESP=0
UVM_INFO ../tb/agents/write_agent/axi4_write_driver.sv(39) @ 2095000: uvm_test_top.env.write_agent.driver [WRITE_DRV] Driving write: ID=4 Addr=0x1010 Len=0 Size=2 Burst=0
UVM_INFO ../tb/agents/write_agent/axi4_write_monitor.sv(137) @ 2135000: uvm_test_top.env.write_agent.monitor [WRITE_MON] Write txn complete: ID=4 Addr=0x1010 Beats=1 BRESP=0
UVM_INFO ../tb/env/axi4_scoreboard.sv(135) @ 2135000: uvm_test_top.env.scoreboard [SCOREBOARD] WR MATCH ID=4 Addr=0x1010 BRESP=0
UVM_INFO ../tb/agents/write_agent/axi4_write_driver.sv(158) @ 2135000: uvm_test_top.env.write_agent.driver [WRITE_DRV] Write complete: ID=4 Addr=0x1010 BRESP=0
UVM_INFO ../tb/agents/write_agent/axi4_write_driver.sv(39) @ 2145000: uvm_test_top.env.write_agent.driver [WRITE_DRV] Driving write: ID=4 Addr=0x1010 Len=0 Size=2 Burst=0
UVM_INFO ../tb/agents/write_agent/axi4_write_monitor.sv(137) @ 2185000: uvm_test_top.env.write_agent.monitor [WRITE_MON] Write txn complete: ID=4 Addr=0x1010 Beats=1 BRESP=0
UVM_INFO ../tb/env/axi4_scoreboard.sv(135) @ 2185000: uvm_test_top.env.scoreboard [SCOREBOARD] WR MATCH ID=4 Addr=0x1010 BRESP=0
UVM_INFO ../tb/agents/write_agent/axi4_write_driver.sv(158) @ 2185000: uvm_test_top.env.write_agent.driver [WRITE_DRV] Write complete: ID=4 Addr=0x1010 BRESP=0
UVM_INFO ../tb/agents/write_agent/axi4_write_driver.sv(39) @ 2195000: uvm_test_top.env.write_agent.driver [WRITE_DRV] Driving write: ID=4 Addr=0x1010 Len=0 Size=2 Burst=0
UVM_INFO ../tb/agents/write_agent/axi4_write_monitor.sv(137) @ 2235000: uvm_test_top.env.write_agent.monitor [WRITE_MON] Write txn complete: ID=4 Addr=0x1010 Beats=1 BRESP=0
UVM_INFO ../tb/env/axi4_scoreboard.sv(135) @ 2235000: uvm_test_top.env.scoreboard [SCOREBOARD] WR MATCH ID=4 Addr=0x1010 BRESP=0
UVM_INFO ../tb/agents/write_agent/axi4_write_driver.sv(158) @ 2235000: uvm_test_top.env.write_agent.driver [WRITE_DRV] Write complete: ID=4 Addr=0x1010 BRESP=0
UVM_INFO ../tb/agents/write_agent/axi4_write_driver.sv(39) @ 2245000: uvm_test_top.env.write_agent.driver [WRITE_DRV] Driving write: ID=4 Addr=0x1010 Len=0 Size=2 Burst=0
UVM_INFO ../tb/agents/write_agent/axi4_write_monitor.sv(137) @ 2285000: uvm_test_top.env.write_agent.monitor [WRITE_MON] Write txn complete: ID=4 Addr=0x1010 Beats=1 BRESP=0
UVM_INFO ../tb/env/axi4_scoreboard.sv(135) @ 2285000: uvm_test_top.env.scoreboard [SCOREBOARD] WR MATCH ID=4 Addr=0x1010 BRESP=0
UVM_INFO ../tb/agents/write_agent/axi4_write_driver.sv(158) @ 2285000: uvm_test_top.env.write_agent.driver [WRITE_DRV] Write complete: ID=4 Addr=0x1010 BRESP=0
UVM_INFO ../tb/agents/write_agent/axi4_write_driver.sv(39) @ 2295000: uvm_test_top.env.write_agent.driver [WRITE_DRV] Driving write: ID=4 Addr=0x1010 Len=0 Size=2 Burst=0
UVM_INFO ../tb/agents/write_agent/axi4_write_monitor.sv(137) @ 2335000: uvm_test_top.env.write_agent.monitor [WRITE_MON] Write txn complete: ID=4 Addr=0x1010 Beats=1 BRESP=0
UVM_INFO ../tb/env/axi4_scoreboard.sv(135) @ 2335000: uvm_test_top.env.scoreboard [SCOREBOARD] WR MATCH ID=4 Addr=0x1010 BRESP=0
UVM_INFO ../tb/agents/write_agent/axi4_write_driver.sv(158) @ 2335000: uvm_test_top.env.write_agent.driver [WRITE_DRV] Write complete: ID=4 Addr=0x1010 BRESP=0
UVM_INFO ../tb/agents/write_agent/axi4_write_driver.sv(39) @ 2345000: uvm_test_top.env.write_agent.driver [WRITE_DRV] Driving write: ID=4 Addr=0x1010 Len=0 Size=2 Burst=0
UVM_INFO ../tb/agents/write_agent/axi4_write_monitor.sv(137) @ 2385000: uvm_test_top.env.write_agent.monitor [WRITE_MON] Write txn complete: ID=4 Addr=0x1010 Beats=1 BRESP=0
UVM_INFO ../tb/env/axi4_scoreboard.sv(135) @ 2385000: uvm_test_top.env.scoreboard [SCOREBOARD] WR MATCH ID=4 Addr=0x1010 BRESP=0
UVM_INFO ../tb/agents/write_agent/axi4_write_driver.sv(158) @ 2385000: uvm_test_top.env.write_agent.driver [WRITE_DRV] Write complete: ID=4 Addr=0x1010 BRESP=0
UVM_INFO ../tb/agents/write_agent/axi4_write_driver.sv(39) @ 2395000: uvm_test_top.env.write_agent.driver [WRITE_DRV] Driving write: ID=4 Addr=0x1010 Len=0 Size=2 Burst=0
UVM_INFO ../tb/agents/write_agent/axi4_write_monitor.sv(137) @ 2435000: uvm_test_top.env.write_agent.monitor [WRITE_MON] Write txn complete: ID=4 Addr=0x1010 Beats=1 BRESP=0
UVM_INFO ../tb/env/axi4_scoreboard.sv(135) @ 2435000: uvm_test_top.env.scoreboard [SCOREBOARD] WR MATCH ID=4 Addr=0x1010 BRESP=0
UVM_INFO ../tb/agents/write_agent/axi4_write_driver.sv(158) @ 2435000: uvm_test_top.env.write_agent.driver [WRITE_DRV] Write complete: ID=4 Addr=0x1010 BRESP=0
UVM_INFO ../tb/agents/read_agent/axi4_read_driver.sv(39) @ 2445000: uvm_test_top.env.read_agent.driver [READ_DRV] Driving read: ID=4 Addr=0x100c Len=0 Size=2 Burst=0
UVM_INFO ../tb/agents/read_agent/axi4_read_monitor.sv(128) @ 2475000: uvm_test_top.env.read_agent.monitor [READ_MON] Read txn complete: ID=4 Addr=0x100c Beats=1 FinalRESP=0 RDATA[0]=0x00000003
UVM_INFO ../tb/env/axi4_scoreboard.sv(199) @ 2475000: uvm_test_top.env.scoreboard [SCOREBOARD] RD MATCH ID=4 Addr=0x100c RESP=0 Data0=0x00000003
UVM_INFO ../tb/agents/read_agent/axi4_read_driver.sv(151) @ 2475000: uvm_test_top.env.read_agent.driver [READ_DRV] Read complete: ID=4 Addr=0x100c Beats=1 FinalRESP=0 RDATA[0]=0x00000003
UVM_ERROR ../tb/sequences/seq_irq_level_set_fifo_flags.sv(110) @ 2475000: reporter@@s [SEQ_IRQ_LEVEL_SET] INT_STATUS[1] still set while FIFO full: got=0x3
UVM_INFO ../tb/sequences/seq_irq_level_set_fifo_flags.sv(112) @ 2475000: reporter@@s [SEQ_IRQ_LEVEL_SET] Sequence #47 completed
UVM_INFO /opt/cadencetools/XCELIUM2409/tools/methodology/UVM/CDNS-1.1d/sv/src/base/uvm_objection.svh(1268) @ 2525000: reporter [TEST_DONE] 'run' phase is ready to proceed to the 'extract' phase
UVM_INFO ../tb/env/axi4_scoreboard.sv(221) @ 2525000: uvm_test_top.env.scoreboard [SCOREBOARD] Results: WR pass=36 fail=0 | RD pass=4 fail=0 | IRQ pass=40 fail=0
UVM_ERROR ../tb/tests/axi4_test_base.sv(85) @ 2525000: uvm_test_top [test_irq] *** test_irq FAILED *** errors=1 fatals=0

--- UVM Report catcher Summary ---


Number of demoted UVM_FATAL reports  :    0
Number of demoted UVM_ERROR reports  :    0
Number of demoted UVM_WARNING reports:    0
Number of caught UVM_FATAL reports   :    0
Number of caught UVM_ERROR reports   :    0
Number of caught UVM_WARNING reports :    0

--- UVM Report Summary ---

** Report counts by severity
UVM_INFO :  202
UVM_WARNING :    0
UVM_ERROR :    2
UVM_FATAL :    0
** Report counts by id
[COVERAGE]     1
[ENV]     2
[READ_AGT]     2
[READ_DRV]     8
[READ_MON]     4
[REF_MODEL]     4
[RNTST]     1
[SCOREBOARD]    45
[SEQ_IRQ_BASIC]     2
[SEQ_IRQ_EN_GATE]     2
[SEQ_IRQ_LEVEL_SET]     3
[SEQ_IRQ_MASK_SWEEP]     2
[SEQ_IRQ_W1C_CLEAR]     2
[TEST_DONE]     1
[UVMTOP]     1
[WRITE_AGT]     2
[WRITE_DRV]    72
[WRITE_MON]    36
[seq_irq_basic_assert_deassert]     3
[seq_irq_en_gate]     1
[seq_irq_mask_sweep]     5
[seq_irq_w1c_clear]     3
[test_irq]     2
Simulation complete via $finish(1) at time 2525 NS + 45
/opt/cadencetools/XCELIUM2409/tools/methodology/UVM/CDNS-1.1d/sv/src/base/uvm_root.svh:457     $finish;
xcelium> exit
TOOL:	xrun(64)	24.09-s008: Exiting on Sep 17, 2026 at 17:32:01 PKT  (total: 00:00:01)
