xrun(64): 24.09-s008: (c) Copyright 1995-2025 Cadence Design Systems, Inc.
TOOL:	xrun(64)	24.09-s008: Started on Sep 17, 2026 at 17:32:02 PKT
xrun
	-64bit
	-uvm
	-sv
	-access +rwc
	-timescale 1ns/1ps
	-f filelist.f
		+incdir+../tb
		+incdir+../rtl
		../rtl/axi_fifo.sv
		../rtl/axi4_peripheral.sv
		../tb/axi4_if.sv
		../tb/axi4_sva.sv
		../tb/axi4_env_pkg.sv
		../tb/top_example.sv
	-top top_example
	+UVM_TESTNAME=test_fifo
	+UVM_VERBOSITY=UVM_MEDIUM
	-l logs/test_fifo.log

   User defined plus("+") options:
	+UVM_VERBOSITY=UVM_MEDIUM

Loading snapshot worklib.top_example:sv .................... Done
SVSEED default: 1
xcelium> source /opt/cadencetools/XCELIUM2409/tools/xcelium/files/xmsimrc
xcelium> source /opt/cadencetools/XCELIUM2409/tools/methodology/UVM/CDNS-1.1d/additions/sv/files/tcl/uvm_sim.tcl
xcelium> run
----------------------------------------------------------------
CDNS-UVM-1.1d (24.09-s008)
(C) 2007-2013 Mentor Graphics Corporation
(C) 2007-2013 Cadence Design Systems, Inc.
(C) 2006-2013 Synopsys, Inc.
(C) 2011-2013 Cypress Semiconductor Corp.
----------------------------------------------------------------

  ***********       IMPORTANT RELEASE NOTES         ************

  You are using a version of the UVM library that has been compiled
  with `UVM_NO_DEPRECATED undefined.
  See http://www.eda.org/svdb/view.php?id=3313 for more details.

  You are using a version of the UVM library that has been compiled
  with `UVM_OBJECT_MUST_HAVE_CONSTRUCTOR undefined.
  See http://www.eda.org/svdb/view.php?id=3770 for more details.

      (Specify +UVM_NO_RELNOTES to turn off this notice)

UVM_INFO @ 0: reporter [RNTST] Running test test_fifo...
UVM_INFO ../tb/env/axi4_env.sv(19) @ 0: uvm_test_top.env [ENV] build_phase executed
UVM_INFO ../tb/env/axi4_coverage.sv(232) @ 0: uvm_test_top.env.coverage [COVERAGE] build_phase executed
UVM_INFO ../tb/agents/read_agent/axi4_read_agent.sv(17) @ 0: uvm_test_top.env.read_agent [READ_AGT] build_phase executed
UVM_INFO ../tb/env/axi4_ref_model.sv(58) @ 0: uvm_test_top.env.ref_model [REF_MODEL] build_phase: shadow state reset
UVM_INFO ../tb/env/axi4_scoreboard.sv(38) @ 0: uvm_test_top.env.scoreboard [SCOREBOARD] build_phase executed
UVM_INFO ../tb/agents/write_agent/axi4_write_agent.sv(17) @ 0: uvm_test_top.env.write_agent [WRITE_AGT] build_phase executed
UVM_INFO ../tb/agents/read_agent/axi4_read_agent.sv(28) @ 0: uvm_test_top.env.read_agent [READ_AGT] connect_phase executed
UVM_INFO ../tb/agents/write_agent/axi4_write_agent.sv(28) @ 0: uvm_test_top.env.write_agent [WRITE_AGT] connect_phase executed
UVM_INFO ../tb/env/axi4_env.sv(30) @ 0: uvm_test_top.env [ENV] connect_phase executed
UVM_INFO @ 0: reporter [UVMTOP] UVM testbench topology:
--------------------------------------------------------------------
Name                         Type                        Size  Value
--------------------------------------------------------------------
uvm_test_top                 test_fifo                   -     @2624
  env                        axi4_env                    -     @2682
    coverage                 axi4_coverage               -     @3182
      read_export            uvm_analysis_imp_read       -     @3328
      write_export           uvm_analysis_imp_write      -     @3280
    read_agent               axi4_read_agent             -     @2745
      driver                 axi4_read_driver            -     @3407
        rsp_port             uvm_analysis_port           -     @3555
        seq_item_port        uvm_seq_item_pull_port      -     @3506
      monitor                axi4_read_monitor           -     @3375
        item_collected_port  uvm_analysis_port           -     @3427
      sequencer              uvm_sequencer               -     @3535
        rsp_export           uvm_analysis_export         -     @3644
        seq_item_export      uvm_seq_item_pull_imp       -     @4192
        arbitration_queue    array                       0     -    
        lock_queue           array                       0     -    
        num_last_reqs        integral                    32    'd1  
        num_last_rsps        integral                    32    'd1  
    ref_model                axi4_ref_model              -     @2775
      exp_read_port          uvm_analysis_port           -     @2974
      exp_write_port         uvm_analysis_port           -     @2925
      read_export            uvm_analysis_imp_read       -     @2876
      write_export           uvm_analysis_imp_write      -     @2825
    scoreboard               axi4_scoreboard             -     @2954
      exp_read_export        uvm_analysis_imp_exp_read   -     @3202
      exp_write_export       uvm_analysis_imp_exp_write  -     @3153
      read_export            uvm_analysis_imp_read       -     @3104
      write_export           uvm_analysis_imp_write      -     @3056
    write_agent              axi4_write_agent            -     @2657
      driver                 axi4_write_driver           -     @4343
        rsp_port             uvm_analysis_port           -     @4438
        seq_item_port        uvm_seq_item_pull_port      -     @4390
      monitor                axi4_write_monitor          -     @4263
        item_collected_port  uvm_analysis_port           -     @4313
      sequencer              uvm_sequencer               -     @4468
        rsp_export           uvm_analysis_export         -     @4523
        seq_item_export      uvm_seq_item_pull_imp       -     @5063
        arbitration_queue    array                       0     -    
        lock_queue           array                       0     -    
        num_last_reqs        integral                    32    'd1  
        num_last_rsps        integral                    32    'd1  
--------------------------------------------------------------------

UVM_INFO ../tb/env/axi4_scoreboard.sv(50) @ 0: uvm_test_top.env.scoreboard [SCOREBOARD] ARESETn asserted  compare queues flushed
UVM_INFO ../tb/env/axi4_ref_model.sv(70) @ 0: uvm_test_top.env.ref_model [REF_MODEL] ARESETn asserted  shadow state cleared
UVM_INFO ../tb/tests/test_fifo.sv(15) @ 35000: uvm_test_top [test_fifo] === test_fifo: seqs 38-42 ===
UVM_INFO ../tb/sequences/seq_fifo_push_pop_basic.sv(19) @ 35000: reporter@@s [SEQ_FIFO_PUSH_POP_BASIC] Executing Sequence #38: FIFO Basic Push/Pop Test
UVM_INFO ../tb/agents/write_agent/axi4_write_driver.sv(39) @ 45000: uvm_test_top.env.write_agent.driver [WRITE_DRV] Driving write: ID=0 Addr=0x1000 Len=0 Size=2 Burst=0
UVM_INFO ../tb/agents/write_agent/axi4_write_monitor.sv(137) @ 85000: uvm_test_top.env.write_agent.monitor [WRITE_MON] Write txn complete: ID=0 Addr=0x1000 Beats=1 BRESP=0
UVM_INFO ../tb/env/axi4_scoreboard.sv(135) @ 85000: uvm_test_top.env.scoreboard [SCOREBOARD] WR MATCH ID=0 Addr=0x1000 BRESP=0
UVM_INFO ../tb/agents/write_agent/axi4_write_driver.sv(158) @ 85000: uvm_test_top.env.write_agent.driver [WRITE_DRV] Write complete: ID=0 Addr=0x1000 BRESP=0
UVM_INFO ../tb/agents/write_agent/axi4_write_driver.sv(39) @ 95000: uvm_test_top.env.write_agent.driver [WRITE_DRV] Driving write: ID=0 Addr=0x1000 Len=0 Size=2 Burst=0
UVM_INFO ../tb/agents/write_agent/axi4_write_monitor.sv(137) @ 135000: uvm_test_top.env.write_agent.monitor [WRITE_MON] Write txn complete: ID=0 Addr=0x1000 Beats=1 BRESP=0
UVM_INFO ../tb/env/axi4_scoreboard.sv(135) @ 135000: uvm_test_top.env.scoreboard [SCOREBOARD] WR MATCH ID=0 Addr=0x1000 BRESP=0
UVM_INFO ../tb/agents/write_agent/axi4_write_driver.sv(158) @ 135000: uvm_test_top.env.write_agent.driver [WRITE_DRV] Write complete: ID=0 Addr=0x1000 BRESP=0
UVM_INFO ../tb/agents/write_agent/axi4_write_driver.sv(39) @ 145000: uvm_test_top.env.write_agent.driver [WRITE_DRV] Driving write: ID=0 Addr=0x1010 Len=0 Size=2 Burst=0
UVM_INFO ../tb/agents/write_agent/axi4_write_monitor.sv(137) @ 185000: uvm_test_top.env.write_agent.monitor [WRITE_MON] Write txn complete: ID=0 Addr=0x1010 Beats=1 BRESP=0
UVM_INFO ../tb/env/axi4_scoreboard.sv(135) @ 185000: uvm_test_top.env.scoreboard [SCOREBOARD] WR MATCH ID=0 Addr=0x1010 BRESP=0
UVM_INFO ../tb/agents/write_agent/axi4_write_driver.sv(158) @ 185000: uvm_test_top.env.write_agent.driver [WRITE_DRV] Write complete: ID=0 Addr=0x1010 BRESP=0
UVM_INFO ../tb/agents/write_agent/axi4_write_driver.sv(39) @ 195000: uvm_test_top.env.write_agent.driver [WRITE_DRV] Driving write: ID=0 Addr=0x1010 Len=0 Size=2 Burst=0
UVM_INFO ../tb/agents/write_agent/axi4_write_monitor.sv(137) @ 235000: uvm_test_top.env.write_agent.monitor [WRITE_MON] Write txn complete: ID=0 Addr=0x1010 Beats=1 BRESP=0
UVM_INFO ../tb/env/axi4_scoreboard.sv(135) @ 235000: uvm_test_top.env.scoreboard [SCOREBOARD] WR MATCH ID=0 Addr=0x1010 BRESP=0
UVM_INFO ../tb/agents/write_agent/axi4_write_driver.sv(158) @ 235000: uvm_test_top.env.write_agent.driver [WRITE_DRV] Write complete: ID=0 Addr=0x1010 BRESP=0
UVM_INFO ../tb/agents/write_agent/axi4_write_driver.sv(39) @ 245000: uvm_test_top.env.write_agent.driver [WRITE_DRV] Driving write: ID=0 Addr=0x1010 Len=0 Size=2 Burst=0
UVM_INFO ../tb/agents/write_agent/axi4_write_monitor.sv(137) @ 285000: uvm_test_top.env.write_agent.monitor [WRITE_MON] Write txn complete: ID=0 Addr=0x1010 Beats=1 BRESP=0
UVM_INFO ../tb/env/axi4_scoreboard.sv(135) @ 285000: uvm_test_top.env.scoreboard [SCOREBOARD] WR MATCH ID=0 Addr=0x1010 BRESP=0
UVM_INFO ../tb/agents/write_agent/axi4_write_driver.sv(158) @ 285000: uvm_test_top.env.write_agent.driver [WRITE_DRV] Write complete: ID=0 Addr=0x1010 BRESP=0
UVM_INFO ../tb/agents/write_agent/axi4_write_driver.sv(39) @ 295000: uvm_test_top.env.write_agent.driver [WRITE_DRV] Driving write: ID=0 Addr=0x1010 Len=0 Size=2 Burst=0
UVM_INFO ../tb/agents/write_agent/axi4_write_monitor.sv(137) @ 335000: uvm_test_top.env.write_agent.monitor [WRITE_MON] Write txn complete: ID=0 Addr=0x1010 Beats=1 BRESP=0
UVM_INFO ../tb/env/axi4_scoreboard.sv(135) @ 335000: uvm_test_top.env.scoreboard [SCOREBOARD] WR MATCH ID=0 Addr=0x1010 BRESP=0
UVM_INFO ../tb/agents/write_agent/axi4_write_driver.sv(158) @ 335000: uvm_test_top.env.write_agent.driver [WRITE_DRV] Write complete: ID=0 Addr=0x1010 BRESP=0
UVM_INFO ../tb/agents/read_agent/axi4_read_driver.sv(39) @ 345000: uvm_test_top.env.read_agent.driver [READ_DRV] Driving read: ID=0 Addr=0x1014 Len=0 Size=2 Burst=0
UVM_INFO ../tb/agents/read_agent/axi4_read_monitor.sv(128) @ 375000: uvm_test_top.env.read_agent.monitor [READ_MON] Read txn complete: ID=0 Addr=0x1014 Beats=1 FinalRESP=0 RDATA[0]=0x00000040
UVM_INFO ../tb/env/axi4_scoreboard.sv(199) @ 375000: uvm_test_top.env.scoreboard [SCOREBOARD] RD MATCH ID=0 Addr=0x1014 RESP=0 Data0=0x00000040
UVM_INFO ../tb/agents/read_agent/axi4_read_driver.sv(151) @ 375000: uvm_test_top.env.read_agent.driver [READ_DRV] Read complete: ID=0 Addr=0x1014 Beats=1 FinalRESP=0 RDATA[0]=0x00000040
UVM_INFO ../tb/agents/read_agent/axi4_read_driver.sv(39) @ 385000: uvm_test_top.env.read_agent.driver [READ_DRV] Driving read: ID=0 Addr=0x1010 Len=0 Size=2 Burst=0
UVM_INFO ../tb/agents/read_agent/axi4_read_monitor.sv(128) @ 415000: uvm_test_top.env.read_agent.monitor [READ_MON] Read txn complete: ID=0 Addr=0x1010 Beats=1 FinalRESP=0 RDATA[0]=0xa0a00000
UVM_INFO ../tb/env/axi4_scoreboard.sv(199) @ 415000: uvm_test_top.env.scoreboard [SCOREBOARD] RD MATCH ID=0 Addr=0x1010 RESP=0 Data0=0xa0a00000
UVM_INFO ../tb/agents/read_agent/axi4_read_driver.sv(151) @ 415000: uvm_test_top.env.read_agent.driver [READ_DRV] Read complete: ID=0 Addr=0x1010 Beats=1 FinalRESP=0 RDATA[0]=0xa0a00000
UVM_INFO ../tb/agents/read_agent/axi4_read_driver.sv(39) @ 425000: uvm_test_top.env.read_agent.driver [READ_DRV] Driving read: ID=0 Addr=0x1010 Len=0 Size=2 Burst=0
UVM_INFO ../tb/agents/read_agent/axi4_read_monitor.sv(128) @ 455000: uvm_test_top.env.read_agent.monitor [READ_MON] Read txn complete: ID=0 Addr=0x1010 Beats=1 FinalRESP=0 RDATA[0]=0xa0a00001
UVM_INFO ../tb/env/axi4_scoreboard.sv(199) @ 455000: uvm_test_top.env.scoreboard [SCOREBOARD] RD MATCH ID=0 Addr=0x1010 RESP=0 Data0=0xa0a00001
UVM_INFO ../tb/agents/read_agent/axi4_read_driver.sv(151) @ 455000: uvm_test_top.env.read_agent.driver [READ_DRV] Read complete: ID=0 Addr=0x1010 Beats=1 FinalRESP=0 RDATA[0]=0xa0a00001
UVM_INFO ../tb/agents/read_agent/axi4_read_driver.sv(39) @ 465000: uvm_test_top.env.read_agent.driver [READ_DRV] Driving read: ID=0 Addr=0x1010 Len=0 Size=2 Burst=0
UVM_INFO ../tb/agents/read_agent/axi4_read_monitor.sv(128) @ 495000: uvm_test_top.env.read_agent.monitor [READ_MON] Read txn complete: ID=0 Addr=0x1010 Beats=1 FinalRESP=0 RDATA[0]=0xa0a00002
UVM_INFO ../tb/env/axi4_scoreboard.sv(199) @ 495000: uvm_test_top.env.scoreboard [SCOREBOARD] RD MATCH ID=0 Addr=0x1010 RESP=0 Data0=0xa0a00002
UVM_INFO ../tb/agents/read_agent/axi4_read_driver.sv(151) @ 495000: uvm_test_top.env.read_agent.driver [READ_DRV] Read complete: ID=0 Addr=0x1010 Beats=1 FinalRESP=0 RDATA[0]=0xa0a00002
UVM_INFO ../tb/agents/read_agent/axi4_read_driver.sv(39) @ 505000: uvm_test_top.env.read_agent.driver [READ_DRV] Driving read: ID=0 Addr=0x1010 Len=0 Size=2 Burst=0
UVM_INFO ../tb/agents/read_agent/axi4_read_monitor.sv(128) @ 535000: uvm_test_top.env.read_agent.monitor [READ_MON] Read txn complete: ID=0 Addr=0x1010 Beats=1 FinalRESP=0 RDATA[0]=0xa0a00003
UVM_INFO ../tb/env/axi4_scoreboard.sv(199) @ 535000: uvm_test_top.env.scoreboard [SCOREBOARD] RD MATCH ID=0 Addr=0x1010 RESP=0 Data0=0xa0a00003
UVM_INFO ../tb/agents/read_agent/axi4_read_driver.sv(151) @ 535000: uvm_test_top.env.read_agent.driver [READ_DRV] Read complete: ID=0 Addr=0x1010 Beats=1 FinalRESP=0 RDATA[0]=0xa0a00003
UVM_INFO ../tb/agents/read_agent/axi4_read_driver.sv(39) @ 545000: uvm_test_top.env.read_agent.driver [READ_DRV] Driving read: ID=0 Addr=0x1014 Len=0 Size=2 Burst=0
UVM_INFO ../tb/agents/read_agent/axi4_read_monitor.sv(128) @ 575000: uvm_test_top.env.read_agent.monitor [READ_MON] Read txn complete: ID=0 Addr=0x1014 Beats=1 FinalRESP=0 RDATA[0]=0x00000001
UVM_INFO ../tb/env/axi4_scoreboard.sv(199) @ 575000: uvm_test_top.env.scoreboard [SCOREBOARD] RD MATCH ID=0 Addr=0x1014 RESP=0 Data0=0x00000001
UVM_INFO ../tb/agents/read_agent/axi4_read_driver.sv(151) @ 575000: uvm_test_top.env.read_agent.driver [READ_DRV] Read complete: ID=0 Addr=0x1014 Beats=1 FinalRESP=0 RDATA[0]=0x00000001
UVM_INFO ../tb/sequences/seq_fifo_push_pop_basic.sv(97) @ 575000: reporter@@s [SEQ_FIFO_PUSH_POP_BASIC] Sequence #38 completed
UVM_INFO ../tb/sequences/seq_fifo_underflow_pop_while_empty.sv(20) @ 625000: reporter@@s [SEQ_FIFO_UNDERFLOW] Executing Sequence #40: FIFO Underflow Pop-While-Empty
UVM_INFO ../tb/agents/write_agent/axi4_write_driver.sv(39) @ 635000: uvm_test_top.env.write_agent.driver [WRITE_DRV] Driving write: ID=2 Addr=0x1000 Len=0 Size=2 Burst=0
UVM_INFO ../tb/agents/write_agent/axi4_write_monitor.sv(137) @ 675000: uvm_test_top.env.write_agent.monitor [WRITE_MON] Write txn complete: ID=2 Addr=0x1000 Beats=1 BRESP=0
UVM_INFO ../tb/env/axi4_scoreboard.sv(135) @ 675000: uvm_test_top.env.scoreboard [SCOREBOARD] WR MATCH ID=2 Addr=0x1000 BRESP=0
UVM_INFO ../tb/agents/write_agent/axi4_write_driver.sv(158) @ 675000: uvm_test_top.env.write_agent.driver [WRITE_DRV] Write complete: ID=2 Addr=0x1000 BRESP=0
UVM_INFO ../tb/agents/write_agent/axi4_write_driver.sv(39) @ 685000: uvm_test_top.env.write_agent.driver [WRITE_DRV] Driving write: ID=2 Addr=0x1000 Len=0 Size=2 Burst=0
UVM_INFO ../tb/agents/write_agent/axi4_write_monitor.sv(137) @ 725000: uvm_test_top.env.write_agent.monitor [WRITE_MON] Write txn complete: ID=2 Addr=0x1000 Beats=1 BRESP=0
UVM_INFO ../tb/env/axi4_scoreboard.sv(135) @ 725000: uvm_test_top.env.scoreboard [SCOREBOARD] WR MATCH ID=2 Addr=0x1000 BRESP=0
UVM_INFO ../tb/agents/write_agent/axi4_write_driver.sv(158) @ 725000: uvm_test_top.env.write_agent.driver [WRITE_DRV] Write complete: ID=2 Addr=0x1000 BRESP=0
UVM_INFO ../tb/agents/read_agent/axi4_read_driver.sv(39) @ 735000: uvm_test_top.env.read_agent.driver [READ_DRV] Driving read: ID=2 Addr=0x1014 Len=0 Size=2 Burst=0
UVM_INFO ../tb/agents/read_agent/axi4_read_monitor.sv(128) @ 765000: uvm_test_top.env.read_agent.monitor [READ_MON] Read txn complete: ID=2 Addr=0x1014 Beats=1 FinalRESP=0 RDATA[0]=0x00000001
UVM_INFO ../tb/env/axi4_scoreboard.sv(199) @ 765000: uvm_test_top.env.scoreboard [SCOREBOARD] RD MATCH ID=2 Addr=0x1014 RESP=0 Data0=0x00000001
UVM_INFO ../tb/agents/read_agent/axi4_read_driver.sv(151) @ 765000: uvm_test_top.env.read_agent.driver [READ_DRV] Read complete: ID=2 Addr=0x1014 Beats=1 FinalRESP=0 RDATA[0]=0x00000001
UVM_INFO ../tb/agents/read_agent/axi4_read_driver.sv(39) @ 775000: uvm_test_top.env.read_agent.driver [READ_DRV] Driving read: ID=2 Addr=0x1010 Len=0 Size=2 Burst=0
UVM_INFO ../tb/agents/read_agent/axi4_read_monitor.sv(128) @ 805000: uvm_test_top.env.read_agent.monitor [READ_MON] Read txn complete: ID=2 Addr=0x1010 Beats=1 FinalRESP=0 RDATA[0]=0x00000000
UVM_INFO ../tb/env/axi4_scoreboard.sv(199) @ 805000: uvm_test_top.env.scoreboard [SCOREBOARD] RD MATCH ID=2 Addr=0x1010 RESP=0 Data0=0x00000000
UVM_INFO ../tb/agents/read_agent/axi4_read_driver.sv(151) @ 805000: uvm_test_top.env.read_agent.driver [READ_DRV] Read complete: ID=2 Addr=0x1010 Beats=1 FinalRESP=0 RDATA[0]=0x00000000
UVM_INFO ../tb/sequences/seq_fifo_underflow_pop_while_empty.sv(72) @ 805000: reporter@@s [SEQ_FIFO_UNDERFLOW] Sequence #40 completed
UVM_INFO ../tb/sequences/seq_fifo_overflow_push_while_full.sv(19) @ 855000: reporter@@s [SEQ_FIFO_OVERFLOW] Executing Sequence #39: FIFO Overflow Push-While-Full
UVM_INFO ../tb/agents/write_agent/axi4_write_driver.sv(39) @ 865000: uvm_test_top.env.write_agent.driver [WRITE_DRV] Driving write: ID=1 Addr=0x1000 Len=0 Size=2 Burst=0
UVM_INFO ../tb/agents/write_agent/axi4_write_monitor.sv(137) @ 905000: uvm_test_top.env.write_agent.monitor [WRITE_MON] Write txn complete: ID=1 Addr=0x1000 Beats=1 BRESP=0
UVM_INFO ../tb/env/axi4_scoreboard.sv(135) @ 905000: uvm_test_top.env.scoreboard [SCOREBOARD] WR MATCH ID=1 Addr=0x1000 BRESP=0
UVM_INFO ../tb/agents/write_agent/axi4_write_driver.sv(158) @ 905000: uvm_test_top.env.write_agent.driver [WRITE_DRV] Write complete: ID=1 Addr=0x1000 BRESP=0
UVM_INFO ../tb/agents/write_agent/axi4_write_driver.sv(39) @ 915000: uvm_test_top.env.write_agent.driver [WRITE_DRV] Driving write: ID=1 Addr=0x1000 Len=0 Size=2 Burst=0
UVM_INFO ../tb/agents/write_agent/axi4_write_monitor.sv(137) @ 955000: uvm_test_top.env.write_agent.monitor [WRITE_MON] Write txn complete: ID=1 Addr=0x1000 Beats=1 BRESP=0
UVM_INFO ../tb/env/axi4_scoreboard.sv(135) @ 955000: uvm_test_top.env.scoreboard [SCOREBOARD] WR MATCH ID=1 Addr=0x1000 BRESP=0
UVM_INFO ../tb/agents/write_agent/axi4_write_driver.sv(158) @ 955000: uvm_test_top.env.write_agent.driver [WRITE_DRV] Write complete: ID=1 Addr=0x1000 BRESP=0
UVM_INFO ../tb/agents/write_agent/axi4_write_driver.sv(39) @ 965000: uvm_test_top.env.write_agent.driver [WRITE_DRV] Driving write: ID=1 Addr=0x1010 Len=0 Size=2 Burst=0
UVM_INFO ../tb/agents/write_agent/axi4_write_monitor.sv(137) @ 1005000: uvm_test_top.env.write_agent.monitor [WRITE_MON] Write txn complete: ID=1 Addr=0x1010 Beats=1 BRESP=0
UVM_INFO ../tb/env/axi4_scoreboard.sv(135) @ 1005000: uvm_test_top.env.scoreboard [SCOREBOARD] WR MATCH ID=1 Addr=0x1010 BRESP=0
UVM_INFO ../tb/agents/write_agent/axi4_write_driver.sv(158) @ 1005000: uvm_test_top.env.write_agent.driver [WRITE_DRV] Write complete: ID=1 Addr=0x1010 BRESP=0
UVM_INFO ../tb/agents/write_agent/axi4_write_driver.sv(39) @ 1015000: uvm_test_top.env.write_agent.driver [WRITE_DRV] Driving write: ID=1 Addr=0x1010 Len=0 Size=2 Burst=0
UVM_INFO ../tb/agents/write_agent/axi4_write_monitor.sv(137) @ 1055000: uvm_test_top.env.write_agent.monitor [WRITE_MON] Write txn complete: ID=1 Addr=0x1010 Beats=1 BRESP=0
UVM_INFO ../tb/env/axi4_scoreboard.sv(135) @ 1055000: uvm_test_top.env.scoreboard [SCOREBOARD] WR MATCH ID=1 Addr=0x1010 BRESP=0
UVM_INFO ../tb/agents/write_agent/axi4_write_driver.sv(158) @ 1055000: uvm_test_top.env.write_agent.driver [WRITE_DRV] Write complete: ID=1 Addr=0x1010 BRESP=0
UVM_INFO ../tb/agents/write_agent/axi4_write_driver.sv(39) @ 1065000: uvm_test_top.env.write_agent.driver [WRITE_DRV] Driving write: ID=1 Addr=0x1010 Len=0 Size=2 Burst=0
UVM_INFO ../tb/agents/write_agent/axi4_write_monitor.sv(137) @ 1105000: uvm_test_top.env.write_agent.monitor [WRITE_MON] Write txn complete: ID=1 Addr=0x1010 Beats=1 BRESP=0
UVM_INFO ../tb/env/axi4_scoreboard.sv(135) @ 1105000: uvm_test_top.env.scoreboard [SCOREBOARD] WR MATCH ID=1 Addr=0x1010 BRESP=0
UVM_INFO ../tb/agents/write_agent/axi4_write_driver.sv(158) @ 1105000: uvm_test_top.env.write_agent.driver [WRITE_DRV] Write complete: ID=1 Addr=0x1010 BRESP=0
UVM_INFO ../tb/agents/write_agent/axi4_write_driver.sv(39) @ 1115000: uvm_test_top.env.write_agent.driver [WRITE_DRV] Driving write: ID=1 Addr=0x1010 Len=0 Size=2 Burst=0
UVM_INFO ../tb/agents/write_agent/axi4_write_monitor.sv(137) @ 1155000: uvm_test_top.env.write_agent.monitor [WRITE_MON] Write txn complete: ID=1 Addr=0x1010 Beats=1 BRESP=0
UVM_INFO ../tb/env/axi4_scoreboard.sv(135) @ 1155000: uvm_test_top.env.scoreboard [SCOREBOARD] WR MATCH ID=1 Addr=0x1010 BRESP=0
UVM_INFO ../tb/agents/write_agent/axi4_write_driver.sv(158) @ 1155000: uvm_test_top.env.write_agent.driver [WRITE_DRV] Write complete: ID=1 Addr=0x1010 BRESP=0
UVM_INFO ../tb/agents/write_agent/axi4_write_driver.sv(39) @ 1165000: uvm_test_top.env.write_agent.driver [WRITE_DRV] Driving write: ID=1 Addr=0x1010 Len=0 Size=2 Burst=0
UVM_INFO ../tb/agents/write_agent/axi4_write_monitor.sv(137) @ 1205000: uvm_test_top.env.write_agent.monitor [WRITE_MON] Write txn complete: ID=1 Addr=0x1010 Beats=1 BRESP=0
UVM_INFO ../tb/env/axi4_scoreboard.sv(135) @ 1205000: uvm_test_top.env.scoreboard [SCOREBOARD] WR MATCH ID=1 Addr=0x1010 BRESP=0
UVM_INFO ../tb/agents/write_agent/axi4_write_driver.sv(158) @ 1205000: uvm_test_top.env.write_agent.driver [WRITE_DRV] Write complete: ID=1 Addr=0x1010 BRESP=0
UVM_INFO ../tb/agents/write_agent/axi4_write_driver.sv(39) @ 1215000: uvm_test_top.env.write_agent.driver [WRITE_DRV] Driving write: ID=1 Addr=0x1010 Len=0 Size=2 Burst=0
UVM_INFO ../tb/agents/write_agent/axi4_write_monitor.sv(137) @ 1255000: uvm_test_top.env.write_agent.monitor [WRITE_MON] Write txn complete: ID=1 Addr=0x1010 Beats=1 BRESP=0
UVM_INFO ../tb/env/axi4_scoreboard.sv(135) @ 1255000: uvm_test_top.env.scoreboard [SCOREBOARD] WR MATCH ID=1 Addr=0x1010 BRESP=0
UVM_INFO ../tb/agents/write_agent/axi4_write_driver.sv(158) @ 1255000: uvm_test_top.env.write_agent.driver [WRITE_DRV] Write complete: ID=1 Addr=0x1010 BRESP=0
UVM_INFO ../tb/agents/write_agent/axi4_write_driver.sv(39) @ 1265000: uvm_test_top.env.write_agent.driver [WRITE_DRV] Driving write: ID=1 Addr=0x1010 Len=0 Size=2 Burst=0
UVM_INFO ../tb/agents/write_agent/axi4_write_monitor.sv(137) @ 1305000: uvm_test_top.env.write_agent.monitor [WRITE_MON] Write txn complete: ID=1 Addr=0x1010 Beats=1 BRESP=0
UVM_INFO ../tb/env/axi4_scoreboard.sv(135) @ 1305000: uvm_test_top.env.scoreboard [SCOREBOARD] WR MATCH ID=1 Addr=0x1010 BRESP=0
UVM_INFO ../tb/agents/write_agent/axi4_write_driver.sv(158) @ 1305000: uvm_test_top.env.write_agent.driver [WRITE_DRV] Write complete: ID=1 Addr=0x1010 BRESP=0
UVM_INFO ../tb/agents/write_agent/axi4_write_driver.sv(39) @ 1315000: uvm_test_top.env.write_agent.driver [WRITE_DRV] Driving write: ID=1 Addr=0x1010 Len=0 Size=2 Burst=0
UVM_INFO ../tb/agents/write_agent/axi4_write_monitor.sv(137) @ 1355000: uvm_test_top.env.write_agent.monitor [WRITE_MON] Write txn complete: ID=1 Addr=0x1010 Beats=1 BRESP=0
UVM_INFO ../tb/env/axi4_scoreboard.sv(135) @ 1355000: uvm_test_top.env.scoreboard [SCOREBOARD] WR MATCH ID=1 Addr=0x1010 BRESP=0
UVM_INFO ../tb/agents/write_agent/axi4_write_driver.sv(158) @ 1355000: uvm_test_top.env.write_agent.driver [WRITE_DRV] Write complete: ID=1 Addr=0x1010 BRESP=0
UVM_INFO ../tb/agents/write_agent/axi4_write_driver.sv(39) @ 1365000: uvm_test_top.env.write_agent.driver [WRITE_DRV] Driving write: ID=1 Addr=0x1010 Len=0 Size=2 Burst=0
UVM_INFO ../tb/agents/write_agent/axi4_write_monitor.sv(137) @ 1405000: uvm_test_top.env.write_agent.monitor [WRITE_MON] Write txn complete: ID=1 Addr=0x1010 Beats=1 BRESP=0
UVM_INFO ../tb/env/axi4_scoreboard.sv(135) @ 1405000: uvm_test_top.env.scoreboard [SCOREBOARD] WR MATCH ID=1 Addr=0x1010 BRESP=0
UVM_INFO ../tb/agents/write_agent/axi4_write_driver.sv(158) @ 1405000: uvm_test_top.env.write_agent.driver [WRITE_DRV] Write complete: ID=1 Addr=0x1010 BRESP=0
UVM_INFO ../tb/agents/write_agent/axi4_write_driver.sv(39) @ 1415000: uvm_test_top.env.write_agent.driver [WRITE_DRV] Driving write: ID=1 Addr=0x1010 Len=0 Size=2 Burst=0
UVM_INFO ../tb/agents/write_agent/axi4_write_monitor.sv(137) @ 1455000: uvm_test_top.env.write_agent.monitor [WRITE_MON] Write txn complete: ID=1 Addr=0x1010 Beats=1 BRESP=0
UVM_INFO ../tb/env/axi4_scoreboard.sv(135) @ 1455000: uvm_test_top.env.scoreboard [SCOREBOARD] WR MATCH ID=1 Addr=0x1010 BRESP=0
UVM_INFO ../tb/agents/write_agent/axi4_write_driver.sv(158) @ 1455000: uvm_test_top.env.write_agent.driver [WRITE_DRV] Write complete: ID=1 Addr=0x1010 BRESP=0
UVM_INFO ../tb/agents/write_agent/axi4_write_driver.sv(39) @ 1465000: uvm_test_top.env.write_agent.driver [WRITE_DRV] Driving write: ID=1 Addr=0x1010 Len=0 Size=2 Burst=0
UVM_INFO ../tb/agents/write_agent/axi4_write_monitor.sv(137) @ 1505000: uvm_test_top.env.write_agent.monitor [WRITE_MON] Write txn complete: ID=1 Addr=0x1010 Beats=1 BRESP=0
UVM_INFO ../tb/env/axi4_scoreboard.sv(135) @ 1505000: uvm_test_top.env.scoreboard [SCOREBOARD] WR MATCH ID=1 Addr=0x1010 BRESP=0
UVM_INFO ../tb/agents/write_agent/axi4_write_driver.sv(158) @ 1505000: uvm_test_top.env.write_agent.driver [WRITE_DRV] Write complete: ID=1 Addr=0x1010 BRESP=0
UVM_INFO ../tb/agents/write_agent/axi4_write_driver.sv(39) @ 1515000: uvm_test_top.env.write_agent.driver [WRITE_DRV] Driving write: ID=1 Addr=0x1010 Len=0 Size=2 Burst=0
UVM_INFO ../tb/agents/write_agent/axi4_write_monitor.sv(137) @ 1555000: uvm_test_top.env.write_agent.monitor [WRITE_MON] Write txn complete: ID=1 Addr=0x1010 Beats=1 BRESP=0
UVM_INFO ../tb/env/axi4_scoreboard.sv(135) @ 1555000: uvm_test_top.env.scoreboard [SCOREBOARD] WR MATCH ID=1 Addr=0x1010 BRESP=0
UVM_INFO ../tb/agents/write_agent/axi4_write_driver.sv(158) @ 1555000: uvm_test_top.env.write_agent.driver [WRITE_DRV] Write complete: ID=1 Addr=0x1010 BRESP=0
UVM_INFO ../tb/agents/write_agent/axi4_write_driver.sv(39) @ 1565000: uvm_test_top.env.write_agent.driver [WRITE_DRV] Driving write: ID=1 Addr=0x1010 Len=0 Size=2 Burst=0
UVM_INFO ../tb/agents/write_agent/axi4_write_monitor.sv(137) @ 1605000: uvm_test_top.env.write_agent.monitor [WRITE_MON] Write txn complete: ID=1 Addr=0x1010 Beats=1 BRESP=0
UVM_INFO ../tb/env/axi4_scoreboard.sv(135) @ 1605000: uvm_test_top.env.scoreboard [SCOREBOARD] WR MATCH ID=1 Addr=0x1010 BRESP=0
UVM_INFO ../tb/agents/write_agent/axi4_write_driver.sv(158) @ 1605000: uvm_test_top.env.write_agent.driver [WRITE_DRV] Write complete: ID=1 Addr=0x1010 BRESP=0
UVM_INFO ../tb/agents/write_agent/axi4_write_driver.sv(39) @ 1615000: uvm_test_top.env.write_agent.driver [WRITE_DRV] Driving write: ID=1 Addr=0x1010 Len=0 Size=2 Burst=0
UVM_INFO ../tb/agents/write_agent/axi4_write_monitor.sv(137) @ 1655000: uvm_test_top.env.write_agent.monitor [WRITE_MON] Write txn complete: ID=1 Addr=0x1010 Beats=1 BRESP=0
UVM_INFO ../tb/env/axi4_scoreboard.sv(135) @ 1655000: uvm_test_top.env.scoreboard [SCOREBOARD] WR MATCH ID=1 Addr=0x1010 BRESP=0
UVM_INFO ../tb/agents/write_agent/axi4_write_driver.sv(158) @ 1655000: uvm_test_top.env.write_agent.driver [WRITE_DRV] Write complete: ID=1 Addr=0x1010 BRESP=0
UVM_INFO ../tb/agents/write_agent/axi4_write_driver.sv(39) @ 1665000: uvm_test_top.env.write_agent.driver [WRITE_DRV] Driving write: ID=1 Addr=0x1010 Len=0 Size=2 Burst=0
UVM_INFO ../tb/agents/write_agent/axi4_write_monitor.sv(137) @ 1705000: uvm_test_top.env.write_agent.monitor [WRITE_MON] Write txn complete: ID=1 Addr=0x1010 Beats=1 BRESP=0
UVM_INFO ../tb/env/axi4_scoreboard.sv(135) @ 1705000: uvm_test_top.env.scoreboard [SCOREBOARD] WR MATCH ID=1 Addr=0x1010 BRESP=0
UVM_INFO ../tb/agents/write_agent/axi4_write_driver.sv(158) @ 1705000: uvm_test_top.env.write_agent.driver [WRITE_DRV] Write complete: ID=1 Addr=0x1010 BRESP=0
UVM_INFO ../tb/agents/write_agent/axi4_write_driver.sv(39) @ 1715000: uvm_test_top.env.write_agent.driver [WRITE_DRV] Driving write: ID=1 Addr=0x1010 Len=0 Size=2 Burst=0
UVM_INFO ../tb/agents/write_agent/axi4_write_monitor.sv(137) @ 1755000: uvm_test_top.env.write_agent.monitor [WRITE_MON] Write txn complete: ID=1 Addr=0x1010 Beats=1 BRESP=0
UVM_INFO ../tb/env/axi4_scoreboard.sv(135) @ 1755000: uvm_test_top.env.scoreboard [SCOREBOARD] WR MATCH ID=1 Addr=0x1010 BRESP=0
UVM_INFO ../tb/agents/write_agent/axi4_write_driver.sv(158) @ 1755000: uvm_test_top.env.write_agent.driver [WRITE_DRV] Write complete: ID=1 Addr=0x1010 BRESP=0
UVM_INFO ../tb/agents/read_agent/axi4_read_driver.sv(39) @ 1765000: uvm_test_top.env.read_agent.driver [READ_DRV] Driving read: ID=1 Addr=0x1014 Len=0 Size=2 Burst=0
UVM_INFO ../tb/agents/read_agent/axi4_read_monitor.sv(128) @ 1795000: uvm_test_top.env.read_agent.monitor [READ_MON] Read txn complete: ID=1 Addr=0x1014 Beats=1 FinalRESP=0 RDATA[0]=0x00000102
UVM_INFO ../tb/env/axi4_scoreboard.sv(199) @ 1795000: uvm_test_top.env.scoreboard [SCOREBOARD] RD MATCH ID=1 Addr=0x1014 RESP=0 Data0=0x00000102
UVM_INFO ../tb/agents/read_agent/axi4_read_driver.sv(151) @ 1795000: uvm_test_top.env.read_agent.driver [READ_DRV] Read complete: ID=1 Addr=0x1014 Beats=1 FinalRESP=0 RDATA[0]=0x00000102
UVM_INFO ../tb/agents/write_agent/axi4_write_driver.sv(39) @ 1805000: uvm_test_top.env.write_agent.driver [WRITE_DRV] Driving write: ID=1 Addr=0x1010 Len=0 Size=2 Burst=0
UVM_INFO ../tb/agents/write_agent/axi4_write_monitor.sv(137) @ 1845000: uvm_test_top.env.write_agent.monitor [WRITE_MON] Write txn complete: ID=1 Addr=0x1010 Beats=1 BRESP=2
UVM_INFO ../tb/env/axi4_scoreboard.sv(135) @ 1845000: uvm_test_top.env.scoreboard [SCOREBOARD] WR MATCH ID=1 Addr=0x1010 BRESP=2
UVM_INFO ../tb/agents/write_agent/axi4_write_driver.sv(158) @ 1845000: uvm_test_top.env.write_agent.driver [WRITE_DRV] Write complete: ID=1 Addr=0x1010 BRESP=2
UVM_INFO ../tb/sequences/seq_fifo_overflow_push_while_full.sv(90) @ 1845000: reporter@@s [SEQ_FIFO_OVERFLOW] Sequence #39 completed
UVM_INFO ../tb/sequences/seq_fifo_disable_clears_contents.sv(19) @ 1895000: reporter@@s [SEQ_FIFO_DISABLE_CLEAR] Executing Sequence #41: FIFO Disable Clears Contents
UVM_INFO ../tb/agents/write_agent/axi4_write_driver.sv(39) @ 1905000: uvm_test_top.env.write_agent.driver [WRITE_DRV] Driving write: ID=3 Addr=0x1000 Len=0 Size=2 Burst=0
UVM_INFO ../tb/agents/write_agent/axi4_write_monitor.sv(137) @ 1945000: uvm_test_top.env.write_agent.monitor [WRITE_MON] Write txn complete: ID=3 Addr=0x1000 Beats=1 BRESP=0
UVM_INFO ../tb/env/axi4_scoreboard.sv(135) @ 1945000: uvm_test_top.env.scoreboard [SCOREBOARD] WR MATCH ID=3 Addr=0x1000 BRESP=0
UVM_INFO ../tb/agents/write_agent/axi4_write_driver.sv(158) @ 1945000: uvm_test_top.env.write_agent.driver [WRITE_DRV] Write complete: ID=3 Addr=0x1000 BRESP=0
UVM_INFO ../tb/agents/write_agent/axi4_write_driver.sv(39) @ 1955000: uvm_test_top.env.write_agent.driver [WRITE_DRV] Driving write: ID=3 Addr=0x1010 Len=0 Size=2 Burst=0
UVM_INFO ../tb/agents/write_agent/axi4_write_monitor.sv(137) @ 1995000: uvm_test_top.env.write_agent.monitor [WRITE_MON] Write txn complete: ID=3 Addr=0x1010 Beats=1 BRESP=2
UVM_INFO ../tb/env/axi4_scoreboard.sv(135) @ 1995000: uvm_test_top.env.scoreboard [SCOREBOARD] WR MATCH ID=3 Addr=0x1010 BRESP=2
UVM_INFO ../tb/agents/write_agent/axi4_write_driver.sv(158) @ 1995000: uvm_test_top.env.write_agent.driver [WRITE_DRV] Write complete: ID=3 Addr=0x1010 BRESP=2
UVM_ERROR ../tb/sequences/axi4_write_base_seq.sv(66) @ 1995000: uvm_test_top.env.write_agent.sequencer@@push_0 [WRITE_BASE_SEQ] BRESP mismatch @0x1010: got=2 expect=0 (id=3 len=0 burst=0)
UVM_INFO ../tb/agents/write_agent/axi4_write_driver.sv(39) @ 2005000: uvm_test_top.env.write_agent.driver [WRITE_DRV] Driving write: ID=3 Addr=0x1010 Len=0 Size=2 Burst=0
UVM_INFO ../tb/agents/write_agent/axi4_write_monitor.sv(137) @ 2045000: uvm_test_top.env.write_agent.monitor [WRITE_MON] Write txn complete: ID=3 Addr=0x1010 Beats=1 BRESP=2
UVM_INFO ../tb/env/axi4_scoreboard.sv(135) @ 2045000: uvm_test_top.env.scoreboard [SCOREBOARD] WR MATCH ID=3 Addr=0x1010 BRESP=2
UVM_INFO ../tb/agents/write_agent/axi4_write_driver.sv(158) @ 2045000: uvm_test_top.env.write_agent.driver [WRITE_DRV] Write complete: ID=3 Addr=0x1010 BRESP=2
UVM_ERROR ../tb/sequences/axi4_write_base_seq.sv(66) @ 2045000: uvm_test_top.env.write_agent.sequencer@@push_1 [WRITE_BASE_SEQ] BRESP mismatch @0x1010: got=2 expect=0 (id=3 len=0 burst=0)
UVM_INFO ../tb/agents/write_agent/axi4_write_driver.sv(39) @ 2055000: uvm_test_top.env.write_agent.driver [WRITE_DRV] Driving write: ID=3 Addr=0x1010 Len=0 Size=2 Burst=0
UVM_INFO ../tb/agents/write_agent/axi4_write_monitor.sv(137) @ 2095000: uvm_test_top.env.write_agent.monitor [WRITE_MON] Write txn complete: ID=3 Addr=0x1010 Beats=1 BRESP=2
UVM_INFO ../tb/env/axi4_scoreboard.sv(135) @ 2095000: uvm_test_top.env.scoreboard [SCOREBOARD] WR MATCH ID=3 Addr=0x1010 BRESP=2
UVM_INFO ../tb/agents/write_agent/axi4_write_driver.sv(158) @ 2095000: uvm_test_top.env.write_agent.driver [WRITE_DRV] Write complete: ID=3 Addr=0x1010 BRESP=2
UVM_ERROR ../tb/sequences/axi4_write_base_seq.sv(66) @ 2095000: uvm_test_top.env.write_agent.sequencer@@push_2 [WRITE_BASE_SEQ] BRESP mismatch @0x1010: got=2 expect=0 (id=3 len=0 burst=0)
UVM_INFO ../tb/agents/write_agent/axi4_write_driver.sv(39) @ 2105000: uvm_test_top.env.write_agent.driver [WRITE_DRV] Driving write: ID=3 Addr=0x1000 Len=0 Size=2 Burst=0
UVM_INFO ../tb/agents/write_agent/axi4_write_monitor.sv(137) @ 2145000: uvm_test_top.env.write_agent.monitor [WRITE_MON] Write txn complete: ID=3 Addr=0x1000 Beats=1 BRESP=0
UVM_INFO ../tb/env/axi4_scoreboard.sv(135) @ 2145000: uvm_test_top.env.scoreboard [SCOREBOARD] WR MATCH ID=3 Addr=0x1000 BRESP=0
UVM_INFO ../tb/agents/write_agent/axi4_write_driver.sv(158) @ 2145000: uvm_test_top.env.write_agent.driver [WRITE_DRV] Write complete: ID=3 Addr=0x1000 BRESP=0
UVM_INFO ../tb/agents/read_agent/axi4_read_driver.sv(39) @ 2155000: uvm_test_top.env.read_agent.driver [READ_DRV] Driving read: ID=3 Addr=0x1014 Len=0 Size=2 Burst=0
UVM_INFO ../tb/agents/read_agent/axi4_read_monitor.sv(128) @ 2185000: uvm_test_top.env.read_agent.monitor [READ_MON] Read txn complete: ID=3 Addr=0x1014 Beats=1 FinalRESP=0 RDATA[0]=0x00000001
UVM_INFO ../tb/env/axi4_scoreboard.sv(199) @ 2185000: uvm_test_top.env.scoreboard [SCOREBOARD] RD MATCH ID=3 Addr=0x1014 RESP=0 Data0=0x00000001
UVM_INFO ../tb/agents/read_agent/axi4_read_driver.sv(151) @ 2185000: uvm_test_top.env.read_agent.driver [READ_DRV] Read complete: ID=3 Addr=0x1014 Beats=1 FinalRESP=0 RDATA[0]=0x00000001
UVM_INFO ../tb/sequences/seq_fifo_disable_clears_contents.sv(73) @ 2185000: reporter@@s [SEQ_FIFO_DISABLE_CLEAR] Sequence #41 completed
UVM_INFO ../tb/sequences/seq_fifo_partial_strobe_reject.sv(18) @ 2235000: uvm_test_top.env.write_agent.sequencer@@s [SEQ_FIFO_PARTIAL_STROBE] Executing Sequence #42: FIFO Partial Strobe Reject
UVM_INFO ../tb/agents/write_agent/axi4_write_driver.sv(39) @ 2245000: uvm_test_top.env.write_agent.driver [WRITE_DRV] Driving write: ID=4 Addr=0x1000 Len=0 Size=2 Burst=0
UVM_INFO ../tb/agents/write_agent/axi4_write_monitor.sv(137) @ 2285000: uvm_test_top.env.write_agent.monitor [WRITE_MON] Write txn complete: ID=4 Addr=0x1000 Beats=1 BRESP=0
UVM_INFO ../tb/env/axi4_scoreboard.sv(135) @ 2285000: uvm_test_top.env.scoreboard [SCOREBOARD] WR MATCH ID=4 Addr=0x1000 BRESP=0
UVM_INFO ../tb/agents/write_agent/axi4_write_driver.sv(158) @ 2285000: uvm_test_top.env.write_agent.driver [WRITE_DRV] Write complete: ID=4 Addr=0x1000 BRESP=0
UVM_INFO ../tb/agents/write_agent/axi4_write_driver.sv(39) @ 2295000: uvm_test_top.env.write_agent.driver [WRITE_DRV] Driving write: ID=4 Addr=0x1010 Len=0 Size=2 Burst=0
UVM_INFO ../tb/agents/write_agent/axi4_write_monitor.sv(137) @ 2335000: uvm_test_top.env.write_agent.monitor [WRITE_MON] Write txn complete: ID=4 Addr=0x1010 Beats=1 BRESP=2
UVM_INFO ../tb/env/axi4_scoreboard.sv(135) @ 2335000: uvm_test_top.env.scoreboard [SCOREBOARD] WR MATCH ID=4 Addr=0x1010 BRESP=2
UVM_INFO ../tb/agents/write_agent/axi4_write_driver.sv(158) @ 2335000: uvm_test_top.env.write_agent.driver [WRITE_DRV] Write complete: ID=4 Addr=0x1010 BRESP=2
UVM_INFO ../tb/sequences/seq_fifo_partial_strobe_reject.sv(49) @ 2335000: uvm_test_top.env.write_agent.sequencer@@s [SEQ_FIFO_PARTIAL_STROBE] Sequence #42 completed
UVM_INFO /opt/cadencetools/XCELIUM2409/tools/methodology/UVM/CDNS-1.1d/sv/src/base/uvm_objection.svh(1268) @ 2385000: reporter [TEST_DONE] 'run' phase is ready to proceed to the 'extract' phase
UVM_INFO ../tb/env/axi4_scoreboard.sv(221) @ 2385000: uvm_test_top.env.scoreboard [SCOREBOARD] Results: WR pass=34 fail=0 | RD pass=10 fail=0 | IRQ pass=44 fail=0
UVM_ERROR ../tb/tests/axi4_test_base.sv(85) @ 2385000: uvm_test_top [test_fifo] *** test_fifo FAILED *** errors=3 fatals=0

--- UVM Report catcher Summary ---


Number of demoted UVM_FATAL reports  :    0
Number of demoted UVM_ERROR reports  :    0
Number of demoted UVM_WARNING reports:    0
Number of caught UVM_FATAL reports   :    0
Number of caught UVM_ERROR reports   :    0
Number of caught UVM_WARNING reports :    0

--- UVM Report Summary ---

** Report counts by severity
UVM_INFO :  202
UVM_WARNING :    0
UVM_ERROR :    4
UVM_FATAL :    0
** Report counts by id
[COVERAGE]     1
[ENV]     2
[READ_AGT]     2
[READ_DRV]    20
[READ_MON]    10
[REF_MODEL]     2
[RNTST]     1
[SCOREBOARD]    47
[SEQ_FIFO_DISABLE_CLEAR]     2
[SEQ_FIFO_OVERFLOW]     2
[SEQ_FIFO_PARTIAL_STROBE]     2
[SEQ_FIFO_PUSH_POP_BASIC]     2
[SEQ_FIFO_UNDERFLOW]     2
[TEST_DONE]     1
[UVMTOP]     1
[WRITE_AGT]     2
[WRITE_BASE_SEQ]     3
[WRITE_DRV]    68
[WRITE_MON]    34
[test_fifo]     2
Simulation complete via $finish(1) at time 2385 NS + 45
/opt/cadencetools/XCELIUM2409/tools/methodology/UVM/CDNS-1.1d/sv/src/base/uvm_root.svh:457     $finish;
xcelium> exit
TOOL:	xrun(64)	24.09-s008: Exiting on Sep 17, 2026 at 17:32:02 PKT  (total: 00:00:00)
