xrun(64): 24.09-s008: (c) Copyright 1995-2025 Cadence Design Systems, Inc.
TOOL:	xrun(64)	24.09-s008: Started on Sep 17, 2026 at 15:39:27 PKT
xrun
	-64bit
	-uvm
	-sv
	-access +rwc
	-timescale 1ns/1ps
	-f filelist.f
		+incdir+../tb
		+incdir+../rtl
		../rtl/axi_fifo.sv
		../rtl/axi4_peripheral.sv
		../tb/axi4_if.sv
		../tb/axi4_sva.sv
		../tb/axi4_env_pkg.sv
		../tb/top_example.sv
	-top top_example
	+UVM_TESTNAME=test_negative_burst
	+UVM_VERBOSITY=UVM_MEDIUM
	-l logs/test_negative_burst.log

   User defined plus("+") options:
	+UVM_VERBOSITY=UVM_MEDIUM

Loading snapshot worklib.top_example:sv .................... Done
SVSEED default: 1
xcelium> source /opt/cadencetools/XCELIUM2409/tools/xcelium/files/xmsimrc
xcelium> source /opt/cadencetools/XCELIUM2409/tools/methodology/UVM/CDNS-1.1d/additions/sv/files/tcl/uvm_sim.tcl
xcelium> run
----------------------------------------------------------------
CDNS-UVM-1.1d (24.09-s008)
(C) 2007-2013 Mentor Graphics Corporation
(C) 2007-2013 Cadence Design Systems, Inc.
(C) 2006-2013 Synopsys, Inc.
(C) 2011-2013 Cypress Semiconductor Corp.
----------------------------------------------------------------

  ***********       IMPORTANT RELEASE NOTES         ************

  You are using a version of the UVM library that has been compiled
  with `UVM_NO_DEPRECATED undefined.
  See http://www.eda.org/svdb/view.php?id=3313 for more details.

  You are using a version of the UVM library that has been compiled
  with `UVM_OBJECT_MUST_HAVE_CONSTRUCTOR undefined.
  See http://www.eda.org/svdb/view.php?id=3770 for more details.

      (Specify +UVM_NO_RELNOTES to turn off this notice)

UVM_INFO @ 0: reporter [RNTST] Running test test_negative_burst...
UVM_INFO ../tb/env/axi4_env.sv(19) @ 0: uvm_test_top.env [ENV] build_phase executed
UVM_INFO ../tb/env/axi4_coverage.sv(232) @ 0: uvm_test_top.env.coverage [COVERAGE] build_phase executed
UVM_INFO ../tb/agents/read_agent/axi4_read_agent.sv(17) @ 0: uvm_test_top.env.read_agent [READ_AGT] build_phase executed
UVM_INFO ../tb/env/axi4_ref_model.sv(54) @ 0: uvm_test_top.env.ref_model [REF_MODEL] build_phase: shadow state reset
UVM_INFO ../tb/env/axi4_scoreboard.sv(33) @ 0: uvm_test_top.env.scoreboard [SCOREBOARD] build_phase executed
UVM_INFO ../tb/agents/write_agent/axi4_write_agent.sv(17) @ 0: uvm_test_top.env.write_agent [WRITE_AGT] build_phase executed
UVM_INFO ../tb/agents/read_agent/axi4_read_agent.sv(28) @ 0: uvm_test_top.env.read_agent [READ_AGT] connect_phase executed
UVM_INFO ../tb/agents/write_agent/axi4_write_agent.sv(28) @ 0: uvm_test_top.env.write_agent [WRITE_AGT] connect_phase executed
UVM_INFO ../tb/env/axi4_env.sv(30) @ 0: uvm_test_top.env [ENV] connect_phase executed
UVM_INFO @ 0: reporter [UVMTOP] UVM testbench topology:
--------------------------------------------------------------------
Name                         Type                        Size  Value
--------------------------------------------------------------------
uvm_test_top                 test_negative_burst         -     @2622
  env                        axi4_env                    -     @2680
    coverage                 axi4_coverage               -     @3180
      read_export            uvm_analysis_imp_read       -     @3326
      write_export           uvm_analysis_imp_write      -     @3278
    read_agent               axi4_read_agent             -     @2743
      driver                 axi4_read_driver            -     @3405
        rsp_port             uvm_analysis_port           -     @3553
        seq_item_port        uvm_seq_item_pull_port      -     @3504
      monitor                axi4_read_monitor           -     @3373
        item_collected_port  uvm_analysis_port           -     @3425
      sequencer              uvm_sequencer               -     @3533
        rsp_export           uvm_analysis_export         -     @3642
        seq_item_export      uvm_seq_item_pull_imp       -     @4190
        arbitration_queue    array                       0     -    
        lock_queue           array                       0     -    
        num_last_reqs        integral                    32    'd1  
        num_last_rsps        integral                    32    'd1  
    ref_model                axi4_ref_model              -     @2773
      exp_read_port          uvm_analysis_port           -     @2972
      exp_write_port         uvm_analysis_port           -     @2923
      read_export            uvm_analysis_imp_read       -     @2874
      write_export           uvm_analysis_imp_write      -     @2823
    scoreboard               axi4_scoreboard             -     @2952
      exp_read_export        uvm_analysis_imp_exp_read   -     @3200
      exp_write_export       uvm_analysis_imp_exp_write  -     @3151
      read_export            uvm_analysis_imp_read       -     @3102
      write_export           uvm_analysis_imp_write      -     @3054
    write_agent              axi4_write_agent            -     @2655
      driver                 axi4_write_driver           -     @4341
        rsp_port             uvm_analysis_port           -     @4436
        seq_item_port        uvm_seq_item_pull_port      -     @4388
      monitor                axi4_write_monitor          -     @4261
        item_collected_port  uvm_analysis_port           -     @4311
      sequencer              uvm_sequencer               -     @4466
        rsp_export           uvm_analysis_export         -     @4521
        seq_item_export      uvm_seq_item_pull_imp       -     @5061
        arbitration_queue    array                       0     -    
        lock_queue           array                       0     -    
        num_last_reqs        integral                    32    'd1  
        num_last_rsps        integral                    32    'd1  
--------------------------------------------------------------------

UVM_INFO ../tb/tests/test_negative_burst.sv(15) @ 35000: uvm_test_top [test_negative_burst] === test_negative_burst: seqs 14-23 ===
UVM_INFO ../tb/sequences/seq_illegal_wrap_burst_write.sv(18) @ 35000: uvm_test_top.env.write_agent.sequencer@@s [SEQ_ILLEGAL_WRAP_WRITE] Executing Sequence #14: Illegal WRAP Write Burst
UVM_INFO ../tb/agents/write_agent/axi4_write_driver.sv(39) @ 45000: uvm_test_top.env.write_agent.driver [WRITE_DRV] Driving write: ID=1 Addr=0x10 Len=3 Size=2 Burst=2
UVM_INFO ../tb/agents/write_agent/axi4_write_monitor.sv(137) @ 115000: uvm_test_top.env.write_agent.monitor [WRITE_MON] Write txn complete: ID=1 Addr=0x10 Beats=4 BRESP=2
UVM_INFO ../tb/env/axi4_scoreboard.sv(92) @ 115000: uvm_test_top.env.scoreboard [SCOREBOARD] WR MATCH ID=1 Addr=0x10 BRESP=2
UVM_INFO ../tb/agents/write_agent/axi4_write_driver.sv(158) @ 115000: uvm_test_top.env.write_agent.driver [WRITE_DRV] Write complete: ID=1 Addr=0x10 BRESP=2
UVM_INFO ../tb/sequences/seq_illegal_wrap_burst_write.sv(31) @ 115000: uvm_test_top.env.write_agent.sequencer@@s [SEQ_ILLEGAL_WRAP_WRITE] Sequence #14 completed
UVM_INFO ../tb/sequences/seq_illegal_wrap_burst_read.sv(18) @ 165000: uvm_test_top.env.read_agent.sequencer@@s [SEQ_ILLEGAL_WRAP_READ] Executing Sequence #15: Illegal WRAP Read Burst
UVM_INFO ../tb/agents/read_agent/axi4_read_driver.sv(39) @ 175000: uvm_test_top.env.read_agent.driver [READ_DRV] Driving read: ID=1 Addr=0x10 Len=3 Size=2 Burst=2
UVM_INFO ../tb/agents/read_agent/axi4_read_monitor.sv(128) @ 235000: uvm_test_top.env.read_agent.monitor [READ_MON] Read txn complete: ID=1 Addr=0x10 Beats=4 FinalRESP=2 RDATA[0]=0x00000000
UVM_INFO ../tb/env/axi4_scoreboard.sv(155) @ 235000: uvm_test_top.env.scoreboard [SCOREBOARD] RD MATCH ID=1 Addr=0x10 RESP=2 Data0=0x00000000
UVM_INFO ../tb/agents/read_agent/axi4_read_driver.sv(151) @ 235000: uvm_test_top.env.read_agent.driver [READ_DRV] Read complete: ID=1 Addr=0x10 Beats=4 FinalRESP=2 RDATA[0]=0x00000000
UVM_INFO ../tb/sequences/seq_illegal_wrap_burst_read.sv(31) @ 235000: uvm_test_top.env.read_agent.sequencer@@s [SEQ_ILLEGAL_WRAP_READ] Sequence #15 completed
UVM_INFO ../tb/sequences/seq_illegal_reserved_burst_write.sv(18) @ 285000: uvm_test_top.env.write_agent.sequencer@@s [SEQ_ILLEGAL_RSVD_WRITE] Executing Sequence #16: Illegal Reserved Write Burst
UVM_INFO ../tb/agents/write_agent/axi4_write_driver.sv(39) @ 295000: uvm_test_top.env.write_agent.driver [WRITE_DRV] Driving write: ID=2 Addr=0x20 Len=1 Size=2 Burst=3
UVM_INFO ../tb/agents/write_agent/axi4_write_monitor.sv(137) @ 345000: uvm_test_top.env.write_agent.monitor [WRITE_MON] Write txn complete: ID=2 Addr=0x20 Beats=2 BRESP=2
UVM_INFO ../tb/env/axi4_scoreboard.sv(92) @ 345000: uvm_test_top.env.scoreboard [SCOREBOARD] WR MATCH ID=2 Addr=0x20 BRESP=2
UVM_INFO ../tb/agents/write_agent/axi4_write_driver.sv(158) @ 345000: uvm_test_top.env.write_agent.driver [WRITE_DRV] Write complete: ID=2 Addr=0x20 BRESP=2
UVM_INFO ../tb/sequences/seq_illegal_reserved_burst_write.sv(31) @ 345000: uvm_test_top.env.write_agent.sequencer@@s [SEQ_ILLEGAL_RSVD_WRITE] Sequence #16 completed
UVM_INFO ../tb/sequences/seq_illegal_reserved_burst_read.sv(18) @ 395000: uvm_test_top.env.read_agent.sequencer@@s [SEQ_ILLEGAL_RSVD_READ] Executing Sequence #17: Illegal Reserved Read Burst
UVM_INFO ../tb/agents/read_agent/axi4_read_driver.sv(39) @ 405000: uvm_test_top.env.read_agent.driver [READ_DRV] Driving read: ID=2 Addr=0x20 Len=1 Size=2 Burst=3
UVM_INFO ../tb/agents/read_agent/axi4_read_monitor.sv(128) @ 445000: uvm_test_top.env.read_agent.monitor [READ_MON] Read txn complete: ID=2 Addr=0x20 Beats=2 FinalRESP=2 RDATA[0]=0x00000000
UVM_INFO ../tb/env/axi4_scoreboard.sv(155) @ 445000: uvm_test_top.env.scoreboard [SCOREBOARD] RD MATCH ID=2 Addr=0x20 RESP=2 Data0=0x00000000
UVM_INFO ../tb/agents/read_agent/axi4_read_driver.sv(151) @ 445000: uvm_test_top.env.read_agent.driver [READ_DRV] Read complete: ID=2 Addr=0x20 Beats=2 FinalRESP=2 RDATA[0]=0x00000000
UVM_INFO ../tb/sequences/seq_illegal_reserved_burst_read.sv(31) @ 445000: uvm_test_top.env.read_agent.sequencer@@s [SEQ_ILLEGAL_RSVD_READ] Sequence #17 completed
UVM_INFO ../tb/sequences/seq_illegal_len_gt15_write.sv(18) @ 495000: uvm_test_top.env.write_agent.sequencer@@s [SEQ_ILLEGAL_LEN_WRITE] Executing Sequence #18: Illegal Burst Length Write (>15)
UVM_INFO ../tb/agents/write_agent/axi4_write_driver.sv(39) @ 505000: uvm_test_top.env.write_agent.driver [WRITE_DRV] Driving write: ID=3 Addr=0x0 Len=16 Size=2 Burst=1
UVM_INFO ../tb/agents/write_agent/axi4_write_monitor.sv(137) @ 705000: uvm_test_top.env.write_agent.monitor [WRITE_MON] Write txn complete: ID=3 Addr=0x0 Beats=17 BRESP=2
UVM_INFO ../tb/env/axi4_scoreboard.sv(92) @ 705000: uvm_test_top.env.scoreboard [SCOREBOARD] WR MATCH ID=3 Addr=0x0 BRESP=2
UVM_INFO ../tb/agents/write_agent/axi4_write_driver.sv(158) @ 705000: uvm_test_top.env.write_agent.driver [WRITE_DRV] Write complete: ID=3 Addr=0x0 BRESP=2
UVM_INFO ../tb/sequences/seq_illegal_len_gt15_write.sv(31) @ 705000: uvm_test_top.env.write_agent.sequencer@@s [SEQ_ILLEGAL_LEN_WRITE] Sequence #18 completed
UVM_INFO ../tb/sequences/seq_illegal_len_gt15_read.sv(18) @ 755000: uvm_test_top.env.read_agent.sequencer@@s [SEQ_ILLEGAL_LEN_READ] Executing Sequence #19: Illegal Burst Length Read (>15)
UVM_INFO ../tb/agents/read_agent/axi4_read_driver.sv(39) @ 765000: uvm_test_top.env.read_agent.driver [READ_DRV] Driving read: ID=3 Addr=0x0 Len=16 Size=2 Burst=1
UVM_INFO ../tb/agents/read_agent/axi4_read_monitor.sv(128) @ 955000: uvm_test_top.env.read_agent.monitor [READ_MON] Read txn complete: ID=3 Addr=0x0 Beats=17 FinalRESP=2 RDATA[0]=0x00000000
UVM_INFO ../tb/env/axi4_scoreboard.sv(155) @ 955000: uvm_test_top.env.scoreboard [SCOREBOARD] RD MATCH ID=3 Addr=0x0 RESP=2 Data0=0x00000000
UVM_INFO ../tb/agents/read_agent/axi4_read_driver.sv(151) @ 955000: uvm_test_top.env.read_agent.driver [READ_DRV] Read complete: ID=3 Addr=0x0 Beats=17 FinalRESP=2 RDATA[0]=0x00000000
UVM_INFO ../tb/sequences/seq_illegal_len_gt15_read.sv(31) @ 955000: uvm_test_top.env.read_agent.sequencer@@s [SEQ_ILLEGAL_LEN_READ] Sequence #19 completed
UVM_INFO ../tb/sequences/seq_illegal_size_gt2_write.sv(18) @ 1005000: uvm_test_top.env.write_agent.sequencer@@s [SEQ_ILLEGAL_SIZE_WRITE] Executing Sequence #20: Illegal Transfer Size Write (>2)
UVM_INFO ../tb/agents/write_agent/axi4_write_driver.sv(39) @ 1015000: uvm_test_top.env.write_agent.driver [WRITE_DRV] Driving write: ID=4 Addr=0x0 Len=0 Size=3 Burst=1
UVM_INFO ../tb/agents/write_agent/axi4_write_monitor.sv(137) @ 1055000: uvm_test_top.env.write_agent.monitor [WRITE_MON] Write txn complete: ID=4 Addr=0x0 Beats=1 BRESP=2
UVM_INFO ../tb/env/axi4_scoreboard.sv(92) @ 1055000: uvm_test_top.env.scoreboard [SCOREBOARD] WR MATCH ID=4 Addr=0x0 BRESP=2
UVM_INFO ../tb/agents/write_agent/axi4_write_driver.sv(158) @ 1055000: uvm_test_top.env.write_agent.driver [WRITE_DRV] Write complete: ID=4 Addr=0x0 BRESP=2
UVM_INFO ../tb/sequences/seq_illegal_size_gt2_write.sv(31) @ 1055000: uvm_test_top.env.write_agent.sequencer@@s [SEQ_ILLEGAL_SIZE_WRITE] Sequence #20 completed
UVM_INFO ../tb/sequences/seq_illegal_size_gt2_read.sv(18) @ 1105000: uvm_test_top.env.read_agent.sequencer@@s [SEQ_ILLEGAL_SIZE_READ] Executing Sequence #21: Illegal Transfer Size Read (>2)
UVM_INFO ../tb/agents/read_agent/axi4_read_driver.sv(39) @ 1115000: uvm_test_top.env.read_agent.driver [READ_DRV] Driving read: ID=4 Addr=0x0 Len=0 Size=3 Burst=1
UVM_INFO ../tb/agents/read_agent/axi4_read_monitor.sv(128) @ 1145000: uvm_test_top.env.read_agent.monitor [READ_MON] Read txn complete: ID=4 Addr=0x0 Beats=1 FinalRESP=2 RDATA[0]=0x00000000
UVM_INFO ../tb/env/axi4_scoreboard.sv(155) @ 1145000: uvm_test_top.env.scoreboard [SCOREBOARD] RD MATCH ID=4 Addr=0x0 RESP=2 Data0=0x00000000
UVM_INFO ../tb/agents/read_agent/axi4_read_driver.sv(151) @ 1145000: uvm_test_top.env.read_agent.driver [READ_DRV] Read complete: ID=4 Addr=0x0 Beats=1 FinalRESP=2 RDATA[0]=0x00000000
UVM_INFO ../tb/sequences/seq_illegal_size_gt2_read.sv(31) @ 1145000: uvm_test_top.env.read_agent.sequencer@@s [SEQ_ILLEGAL_SIZE_READ] Sequence #21 completed
UVM_INFO ../tb/sequences/seq_illegal_4k_boundary_write.sv(18) @ 1195000: uvm_test_top.env.write_agent.sequencer@@s [SEQ_ILLEGAL_4K_WRITE] Executing Sequence #22: Illegal 4KB Boundary Write
UVM_INFO ../tb/agents/write_agent/axi4_write_driver.sv(39) @ 1205000: uvm_test_top.env.write_agent.driver [WRITE_DRV] Driving write: ID=5 Addr=0xfe0 Len=15 Size=2 Burst=1
UVM_INFO ../tb/agents/write_agent/axi4_write_monitor.sv(137) @ 1395000: uvm_test_top.env.write_agent.monitor [WRITE_MON] Write txn complete: ID=5 Addr=0xfe0 Beats=16 BRESP=2
UVM_INFO ../tb/env/axi4_scoreboard.sv(92) @ 1395000: uvm_test_top.env.scoreboard [SCOREBOARD] WR MATCH ID=5 Addr=0xfe0 BRESP=2
UVM_INFO ../tb/agents/write_agent/axi4_write_driver.sv(158) @ 1395000: uvm_test_top.env.write_agent.driver [WRITE_DRV] Write complete: ID=5 Addr=0xfe0 BRESP=2
UVM_INFO ../tb/sequences/seq_illegal_4k_boundary_write.sv(31) @ 1395000: uvm_test_top.env.write_agent.sequencer@@s [SEQ_ILLEGAL_4K_WRITE] Sequence #22 completed
UVM_INFO ../tb/sequences/seq_illegal_4k_boundary_read.sv(18) @ 1445000: uvm_test_top.env.read_agent.sequencer@@s [SEQ_ILLEGAL_4K_READ] Executing Sequence #23: Illegal 4KB Boundary Read
UVM_INFO ../tb/agents/read_agent/axi4_read_driver.sv(39) @ 1455000: uvm_test_top.env.read_agent.driver [READ_DRV] Driving read: ID=5 Addr=0xfe0 Len=15 Size=2 Burst=1
UVM_INFO ../tb/agents/read_agent/axi4_read_monitor.sv(128) @ 1635000: uvm_test_top.env.read_agent.monitor [READ_MON] Read txn complete: ID=5 Addr=0xfe0 Beats=16 FinalRESP=2 RDATA[0]=0x00000000
UVM_INFO ../tb/env/axi4_scoreboard.sv(155) @ 1635000: uvm_test_top.env.scoreboard [SCOREBOARD] RD MATCH ID=5 Addr=0xfe0 RESP=2 Data0=0x00000000
UVM_INFO ../tb/agents/read_agent/axi4_read_driver.sv(151) @ 1635000: uvm_test_top.env.read_agent.driver [READ_DRV] Read complete: ID=5 Addr=0xfe0 Beats=16 FinalRESP=2 RDATA[0]=0x00000000
UVM_INFO ../tb/sequences/seq_illegal_4k_boundary_read.sv(31) @ 1635000: uvm_test_top.env.read_agent.sequencer@@s [SEQ_ILLEGAL_4K_READ] Sequence #23 completed
UVM_INFO /opt/cadencetools/XCELIUM2409/tools/methodology/UVM/CDNS-1.1d/sv/src/base/uvm_objection.svh(1268) @ 1685000: reporter [TEST_DONE] 'run' phase is ready to proceed to the 'extract' phase
UVM_INFO ../tb/env/axi4_scoreboard.sv(176) @ 1685000: uvm_test_top.env.scoreboard [SCOREBOARD] Results: WR pass=5 fail=0 | RD pass=5 fail=0
UVM_INFO ../tb/tests/axi4_test_base.sv(81) @ 1685000: uvm_test_top [test_negative_burst] *** test_negative_burst PASSED ***

--- UVM Report catcher Summary ---


Number of demoted UVM_FATAL reports  :    0
Number of demoted UVM_ERROR reports  :    0
Number of demoted UVM_WARNING reports:    0
Number of caught UVM_FATAL reports   :    0
Number of caught UVM_ERROR reports   :    0
Number of caught UVM_WARNING reports :    0

--- UVM Report Summary ---

** Report counts by severity
UVM_INFO :   75
UVM_WARNING :    0
UVM_ERROR :    0
UVM_FATAL :    0
** Report counts by id
[COVERAGE]     1
[ENV]     2
[READ_AGT]     2
[READ_DRV]    10
[READ_MON]     5
[REF_MODEL]     1
[RNTST]     1
[SCOREBOARD]    12
[SEQ_ILLEGAL_4K_READ]     2
[SEQ_ILLEGAL_4K_WRITE]     2
[SEQ_ILLEGAL_LEN_READ]     2
[SEQ_ILLEGAL_LEN_WRITE]     2
[SEQ_ILLEGAL_RSVD_READ]     2
[SEQ_ILLEGAL_RSVD_WRITE]     2
[SEQ_ILLEGAL_SIZE_READ]     2
[SEQ_ILLEGAL_SIZE_WRITE]     2
[SEQ_ILLEGAL_WRAP_READ]     2
[SEQ_ILLEGAL_WRAP_WRITE]     2
[TEST_DONE]     1
[UVMTOP]     1
[WRITE_AGT]     2
[WRITE_DRV]    10
[WRITE_MON]     5
[test_negative_burst]     2
Simulation complete via $finish(1) at time 1685 NS + 45
/opt/cadencetools/XCELIUM2409/tools/methodology/UVM/CDNS-1.1d/sv/src/base/uvm_root.svh:457     $finish;
xcelium> exit
TOOL:	xrun(64)	24.09-s008: Exiting on Sep 17, 2026 at 15:39:28 PKT  (total: 00:00:01)
